TIME,V(_00_),V(_01_),V(_02_),V(_03_),V(_04_)
0.00000000e+00,0.00000000e+00,0.00000000e+00,0.00000000e+00,0.00000000e+00,0.00000000e+00
5.00000000e-12,3.32792401e-09,1.66396200e-09,3.32792401e-09,4.63049996e-01,9.87547950e-02
5.00000954e-12,3.32793036e-09,1.66396518e-09,3.32793036e-09,4.63050879e-01,9.87549834e-02
5.00000954e-12,3.32793036e-09,1.66396518e-09,3.32793036e-09,4.63050879e-01,9.87549835e-02
5.00000954e-12,3.32793036e-09,1.66396518e-09,3.32793036e-09,4.63050879e-01,9.87549835e-02
5.00000954e-12,3.32793036e-09,1.66396518e-09,3.32793036e-09,4.63050880e-01,9.87549835e-02
5.00000954e-12,3.32793036e-09,1.66396518e-09,3.32793036e-09,4.63050880e-01,9.87549835e-02
5.00000955e-12,3.32793036e-09,1.66396518e-09,3.32793036e-09,4.63050880e-01,9.87549836e-02
5.00000956e-12,3.32793037e-09,1.66396519e-09,3.32793037e-09,4.63050881e-01,9.87549838e-02
5.00000958e-12,3.32793038e-09,1.66396519e-09,3.32793038e-09,4.63050883e-01,9.87549842e-02
5.00000961e-12,3.32793041e-09,1.66396520e-09,3.32793041e-09,4.63050886e-01,9.87549849e-02
5.00000969e-12,3.32793046e-09,1.66396523e-09,3.32793046e-09,4.63050893e-01,9.87549864e-02
5.00000984e-12,3.32793056e-09,1.66396528e-09,3.32793056e-09,4.63050907e-01,9.87549893e-02
5.00001013e-12,3.32793075e-09,1.66396538e-09,3.32793075e-09,4.63050935e-01,9.87549952e-02
5.00001073e-12,3.32793115e-09,1.66396558e-09,3.32793115e-09,4.63050990e-01,9.87550070e-02
5.00001192e-12,3.32793194e-09,1.66396597e-09,3.32793194e-09,4.63051100e-01,9.87550305e-02
5.00001431e-12,3.32793353e-09,1.66396677e-09,3.32793353e-09,4.63051321e-01,9.87550776e-02
5.00001908e-12,3.32793671e-09,1.66396835e-09,3.32793671e-09,4.63051763e-01,9.87551718e-02
5.00002861e-12,3.32794305e-09,1.66397153e-09,3.32794305e-09,4.63052646e-01,9.87553602e-02
5.00004769e-12,3.32795575e-09,1.66397787e-09,3.32795575e-09,4.63054412e-01,9.87557370e-02
5.00008583e-12,3.32798114e-09,1.66399057e-09,3.32798114e-09,4.63057945e-01,9.87564905e-02
5.00016213e-12,3.32803192e-09,1.66401596e-09,3.32803192e-09,4.63065011e-01,9.87579977e-02
5.00031471e-12,3.32813348e-09,1.66406674e-09,3.32813348e-09,4.63079142e-01,9.87610125e-02
5.00061989e-12,3.32833660e-09,1.66416830e-09,3.32833660e-09,4.63107404e-01,9.87670439e-02
5.00123024e-12,3.32874284e-09,1.66437142e-09,3.32874284e-09,4.63163929e-01,9.87791137e-02
5.00245094e-12,3.32955532e-09,1.66477766e-09,3.32955532e-09,4.63276978e-01,9.88032814e-02
5.00489235e-12,3.33118028e-09,1.66559014e-09,3.33118028e-09,4.63503077e-01,9.88517296e-02
5.00977516e-12,3.33443021e-09,1.66721510e-09,3.33443021e-09,4.63955274e-01,9.89490770e-02
5.01954079e-12,3.34093006e-09,1.67046503e-09,3.34093006e-09,4.64859668e-01,9.91455792e-02
5.02930641e-12,3.34742991e-09,1.67371496e-09,3.34742991e-09,4.65764063e-01,9.93444964e-02
5.03907204e-12,3.35392976e-09,1.67696488e-09,3.35392976e-09,4.66668457e-01,9.95458347e-02
5.04883766e-12,3.36042962e-09,1.68021481e-09,3.36042962e-09,4.67572852e-01,9.97496006e-02
5.05860329e-12,3.36692947e-09,1.68346473e-09,3.36692947e-09,4.68477246e-01,9.99558000e-02
5.06836891e-12,3.37342932e-09,1.68671466e-09,3.37342932e-09,4.69381641e-01,1.00164439e-01
5.07813454e-12,3.37992917e-09,1.68996459e-09,3.37992917e-09,4.70286036e-01,1.00375523e-01
5.08790016e-12,3.38642902e-09,1.69321451e-09,3.38642902e-09,4.71190430e-01,1.00589058e-01
5.09766579e-12,3.39292887e-09,1.69646444e-09,3.39292887e-09,4.72094825e-01,1.00805049e-01
5.10743141e-12,3.39942873e-09,1.69971436e-09,3.39942873e-09,4.72999219e-01,1.01023501e-01
5.11719704e-12,3.40592858e-09,1.70296429e-09,3.40592858e-09,4.73903614e-01,1.01244419e-01
5.12696266e-12,3.41242843e-09,1.70621421e-09,3.41242843e-09,4.74808008e-01,1.01467809e-01
5.13672829e-12,3.41892828e-09,1.70946414e-09,3.41892828e-09,4.75712403e-01,1.01693675e-01
5.14649391e-12,3.42542813e-09,1.71271407e-09,3.42542813e-09,4.76616797e-01,1.01922021e-01
5.15625954e-12,3.43192798e-09,1.71596399e-09,3.43192798e-09,4.77521192e-01,1.02152852e-01
5.16602516e-12,3.43842783e-09,1.71921392e-09,3.43842783e-09,4.78425586e-01,1.02386172e-01
5.17579079e-12,3.44492769e-09,1.72246384e-09,3.44492769e-09,4.79329981e-01,1.02621986e-01
5.18555641e-12,3.45142754e-09,1.72571377e-09,3.45142754e-09,4.80234375e-01,1.02860296e-01
5.19532204e-12,3.45792739e-09,1.72896369e-09,3.45792739e-09,4.81138770e-01,1.03101107e-01
5.20508766e-12,3.46442724e-09,1.73221362e-09,3.46442724e-09,4.82043164e-01,1.03344423e-01
5.21485329e-12,3.47092709e-09,1.73546355e-09,3.47092709e-09,4.82947559e-01,1.03590246e-01
5.22461891e-12,3.47742694e-09,1.73871347e-09,3.47742694e-09,4.83851953e-01,1.03838580e-01
5.23438454e-12,3.48392680e-09,1.74196340e-09,3.48392680e-09,4.84756348e-01,1.04089428e-01
5.24415016e-12,3.49042665e-09,1.74521332e-09,3.49042665e-09,4.85660742e-01,1.04342793e-01
5.25391579e-12,3.49692650e-09,1.74846325e-09,3.49692650e-09,4.86565137e-01,1.04598678e-01
5.26368141e-12,3.50342635e-09,1.75171318e-09,3.50342635e-09,4.87469531e-01,1.04857086e-01
5.27344704e-12,3.50992620e-09,1.75496310e-09,3.50992620e-09,4.88373926e-01,1.05118018e-01
5.28321266e-12,3.51642605e-09,1.75821303e-09,3.51642605e-09,4.89278321e-01,1.05381477e-01
5.29297829e-12,3.52292591e-09,1.76146295e-09,3.52292591e-09,4.90182715e-01,1.05647466e-01
5.30274391e-12,3.52942576e-09,1.76471288e-09,3.52942576e-09,4.91087110e-01,1.05915986e-01
5.31250954e-12,3.53592561e-09,1.76796280e-09,3.53592561e-09,4.91991504e-01,1.06187040e-01
5.32227516e-12,3.54242546e-09,1.77121273e-09,3.54242546e-09,4.92895899e-01,1.06460628e-01
5.33204079e-12,3.54892531e-09,1.77446266e-09,3.54892531e-09,4.93800293e-01,1.06736752e-01
5.34180641e-12,3.55542516e-09,1.77771258e-09,3.55542516e-09,4.94704688e-01,1.07015415e-01
5.35157204e-12,3.56192501e-09,1.78096251e-09,3.56192501e-09,4.95609082e-01,1.07296616e-01
5.36133766e-12,3.56842487e-09,1.78421243e-09,3.56842487e-09,4.96513477e-01,1.07580358e-01
5.37110329e-12,3.57492472e-09,1.78746236e-09,3.57492472e-09,4.97417871e-01,1.07866641e-01
5.38086891e-12,3.58142457e-09,1.79071228e-09,3.58142457e-09,4.98322266e-01,1.08155466e-01
5.39063454e-12,3.58792442e-09,1.79396221e-09,3.58792442e-09,4.99226660e-01,1.08446834e-01
5.40040016e-12,3.59442427e-09,1.79721214e-09,3.62612804e-09,5.00131055e-01,1.08740745e-01
5.41016579e-12,3.60092412e-09,1.80046206e-09,5.64322930e-09,5.01035448e-01,1.09037200e-01
5.41993141e-12,3.60742398e-09,1.80371199e-09,1.45739654e-08,5.01939838e-01,1.09336199e-01
5.42969704e-12,3.61392383e-09,1.80696191e-09,3.64566976e-08,5.02844222e-01,1.09637742e-01
5.43946266e-12,3.62042368e-09,1.81021184e-09,7.73294417e-08,5.03748596e-01,1.09941829e-01
5.44922829e-12,3.62692353e-09,1.81346177e-09,1.43229706e-07,5.04652957e-01,1.10248460e-01
5.45899391e-12,3.63342338e-09,1.81671169e-09,2.40194330e-07,5.05557303e-01,1.10557634e-01
5.46875954e-12,3.63992323e-09,1.81996162e-09,3.74259326e-07,5.06461629e-01,1.10869352e-01
5.47852516e-12,3.64642309e-09,1.82321154e-09,5.51459711e-07,5.07365934e-01,1.11183613e-01
5.48829079e-12,3.65292294e-09,1.82646147e-09,7.77829355e-07,5.08270214e-01,1.11500416e-01
5.49805641e-12,3.65942279e-09,1.82971139e-09,1.05940081e-06,5.09174465e-01,1.11819760e-01
5.50782204e-12,3.66592264e-09,1.83296132e-09,1.40220517e-06,5.10078685e-01,1.12141644e-01
5.51758766e-12,3.67242249e-09,1.83621125e-09,1.81227186e-06,5.10982871e-01,1.12466068e-01
5.52735329e-12,3.67892234e-09,1.83946117e-09,2.29562855e-06,5.11887018e-01,1.12793029e-01
5.53711891e-12,3.68542219e-09,1.84271110e-09,2.85830093e-06,5.12791125e-01,1.13122528e-01
5.54688454e-12,3.69192205e-09,1.84596102e-09,3.50631258e-06,5.13695187e-01,1.13454562e-01
5.55665016e-12,3.69842190e-09,1.84921095e-09,4.24568480e-06,5.14599202e-01,1.13789130e-01
5.56641579e-12,3.70492175e-09,1.85246087e-09,5.08243646e-06,5.15503166e-01,1.14126230e-01
5.57618141e-12,3.71142160e-09,1.85571080e-09,6.02258383e-06,5.16407077e-01,1.14465860e-01
5.58594704e-12,3.71792145e-09,1.85896073e-09,7.07214041e-06,5.17310930e-01,1.14808019e-01
5.59571266e-12,3.72442130e-09,1.86221065e-09,8.23711679e-06,5.18214722e-01,1.15152704e-01
5.60547829e-12,3.73092116e-09,1.86546058e-09,9.52352050e-06,5.19118451e-01,1.15499914e-01
5.61524391e-12,3.73742101e-09,1.86871050e-09,1.09373558e-05,5.20022112e-01,1.15849645e-01
5.62500954e-12,3.74392086e-09,1.87196043e-09,1.24846236e-05,5.20925703e-01,1.16201896e-01
5.63477516e-12,3.75042071e-09,1.87521036e-09,1.41713212e-05,5.21829221e-01,1.16556665e-01
5.64454079e-12,3.75692056e-09,1.87846028e-09,1.60034423e-05,5.22732661e-01,1.16913948e-01
5.65430641e-12,3.76342041e-09,1.88171021e-09,1.79869765e-05,5.23636021e-01,1.17273743e-01
5.66407204e-12,3.76992027e-09,1.88496013e-09,2.01279097e-05,5.24539296e-01,1.17636047e-01
5.67383766e-12,3.77642012e-09,1.88821006e-09,2.24322232e-05,5.25442485e-01,1.18000857e-01
5.68360329e-12,3.78291997e-09,1.89145998e-09,2.49058943e-05,5.26345582e-01,1.18368170e-01
5.69336891e-12,3.78941982e-09,1.89470991e-09,2.75548957e-05,5.27248586e-01,1.18737983e-01
5.70313454e-12,3.79591967e-09,1.89795984e-09,3.03851953e-05,5.28151492e-01,1.19110293e-01
5.71290016e-12,3.80241952e-09,1.90120976e-09,3.34027564e-05,5.29054297e-01,1.19485096e-01
5.72266579e-12,3.80891937e-09,1.90445969e-09,3.66135371e-05,5.29956998e-01,1.19862389e-01
5.73243141e-12,3.81541923e-09,1.90770961e-09,4.00234906e-05,5.30859591e-01,1.20242169e-01
5.74219704e-12,3.82191908e-09,1.91095954e-09,4.36385645e-05,5.31762072e-01,1.20624432e-01
5.75196266e-12,3.82841893e-09,1.91420946e-09,4.74647014e-05,5.32664439e-01,1.21009173e-01
5.76172829e-12,3.83491878e-09,1.91745939e-09,5.15078378e-05,5.33566687e-01,1.21396390e-01
5.77149391e-12,3.84141863e-09,1.92070932e-09,5.57739048e-05,5.34468813e-01,1.21786078e-01
5.78125954e-12,3.84791848e-09,1.92395924e-09,6.02688275e-05,5.35370814e-01,1.22178233e-01
5.79102516e-12,3.85441834e-09,1.92720917e-09,6.49985248e-05,5.36272687e-01,1.22572852e-01
5.80079079e-12,3.86091819e-09,1.93045909e-09,6.99689095e-05,5.37174426e-01,1.22969929e-01
5.81055641e-12,3.86741804e-09,1.93370902e-09,7.51858880e-05,5.38076030e-01,1.23369461e-01
5.82032204e-12,3.87391789e-09,1.93695895e-09,8.06553602e-05,5.38977494e-01,1.23771444e-01
5.83008766e-12,3.88041774e-09,1.94020887e-09,8.63832193e-05,5.39878816e-01,1.24175872e-01
5.83985329e-12,3.88691759e-09,1.94345880e-09,9.23753516e-05,5.40779990e-01,1.24582741e-01
5.84961891e-12,3.89341745e-09,1.94670872e-09,9.86376365e-05,5.41681015e-01,1.24992047e-01
5.85938454e-12,3.89991730e-09,1.94995865e-09,1.05175946e-04,5.42581885e-01,1.25403785e-01
5.86915016e-12,3.90641715e-09,1.95320857e-09,1.11996146e-04,5.43482598e-01,1.25817949e-01
5.87891579e-12,3.91291700e-09,1.95645850e-09,1.19104092e-04,5.44383150e-01,1.26234536e-01
5.88868141e-12,3.91941685e-09,1.95970843e-09,1.26505636e-04,5.45283537e-01,1.26653540e-01
5.89844704e-12,3.92591670e-09,1.96295835e-09,1.34206619e-04,5.46183756e-01,1.27074957e-01
5.90821266e-12,3.93241655e-09,1.96620828e-09,1.42212875e-04,5.47083803e-01,1.27498780e-01
5.91797829e-12,3.93891641e-09,1.96945820e-09,1.50530231e-04,5.47983674e-01,1.27925005e-01
5.92774391e-12,3.94541626e-09,1.97270813e-09,1.59164505e-04,5.48883366e-01,1.28353626e-01
5.93750954e-12,3.95191611e-09,1.97595805e-09,1.68121506e-04,5.49782876e-01,1.28784639e-01
5.94727516e-12,3.95841596e-09,1.97920798e-09,1.77407035e-04,5.50682198e-01,1.29218037e-01
5.95704079e-12,3.96491581e-09,1.98245791e-09,1.87026886e-04,5.51581330e-01,1.29653815e-01
5.96680641e-12,3.97141566e-09,1.98570783e-09,1.96986841e-04,5.52480268e-01,1.30091968e-01
5.97657204e-12,3.97791552e-09,1.98895776e-09,2.07292675e-04,5.53379009e-01,1.30532491e-01
5.98633766e-12,3.98441537e-09,1.99220768e-09,2.17950155e-04,5.54277548e-01,1.30975376e-01
5.99610329e-12,3.99091522e-09,1.99545761e-09,2.28965036e-04,5.55175882e-01,1.31420619e-01
6.00586891e-12,3.99741507e-09,1.99870754e-09,2.40343066e-04,5.56074007e-01,1.31868213e-01
6.01563454e-12,4.00391492e-09,2.00195746e-09,2.52089983e-04,5.56971920e-01,1.32318153e-01
6.02540016e-12,4.01041477e-09,2.00520739e-09,2.64211514e-04,5.57869616e-01,1.32770433e-01
6.03516579e-12,4.01691462e-09,2.00845731e-09,2.76713377e-04,5.58767092e-01,1.33225046e-01
6.04493141e-12,4.02341448e-09,2.01170724e-09,2.89601281e-04,5.59664345e-01,1.33681987e-01
6.05469704e-12,4.02991433e-09,2.01495716e-09,3.02880923e-04,5.60561370e-01,1.34141250e-01
6.06446266e-12,4.03641418e-09,2.01820709e-09,3.16557992e-04,5.61458163e-01,1.34602828e-01
6.07422829e-12,4.04291403e-09,2.02145702e-09,3.30638165e-04,5.62354722e-01,1.35066714e-01
6.08399391e-12,4.04941388e-09,2.02470694e-09,3.45127109e-04,5.63251041e-01,1.35532903e-01
6.09375954e-12,4.05591373e-09,2.02795687e-09,3.60030480e-04,5.64147118e-01,1.36001389e-01
6.11329079e-12,4.06891344e-09,2.03445672e-09,3.91105887e-04,5.65938527e-01,1.36945219e-01
6.13282204e-12,4.08191314e-09,2.04095657e-09,4.23906592e-04,5.67728920e-01,1.37898156e-01
6.15235329e-12,4.09491284e-09,2.04745642e-09,4.58477446e-04,5.69518266e-01,1.38860146e-01
6.17188454e-12,4.10791255e-09,2.05395627e-09,4.94863118e-04,5.71306535e-01,1.39831137e-01
6.19141579e-12,4.12091225e-09,2.06045613e-09,5.33108088e-04,5.73093696e-01,1.40811072e-01
6.21094704e-12,4.13391195e-09,2.06695598e-09,5.73256642e-04,5.74879719e-01,1.41799897e-01
6.23047829e-12,4.14691166e-09,2.07345583e-09,6.15352872e-04,5.76664572e-01,1.42797555e-01
6.25000954e-12,4.15991136e-09,2.07995568e-09,6.59440668e-04,5.78448226e-01,1.43803991e-01
6.26954079e-12,4.17291106e-09,2.08645553e-09,7.05563714e-04,5.80230648e-01,1.44819146e-01
6.28907204e-12,4.18591077e-09,2.09295538e-09,7.53765485e-04,5.82011809e-01,1.45842963e-01
6.30860329e-12,4.19891047e-09,2.09945523e-09,8.04089244e-04,5.83791676e-01,1.46875383e-01
6.32813454e-12,4.21191017e-09,2.10595509e-09,8.56578035e-04,5.85570220e-01,1.47916346e-01
6.34766579e-12,4.22490988e-09,2.11245494e-09,9.11274681e-04,5.87347409e-01,1.48965794e-01
6.36719704e-12,4.23790958e-09,2.11895479e-09,9.68221780e-04,5.89123211e-01,1.50023667e-01
6.38672829e-12,4.25090928e-09,2.12545464e-09,1.02746170e-03,5.90897597e-01,1.51089903e-01
6.40625954e-12,4.26390898e-09,2.13195449e-09,1.08903658e-03,5.92670534e-01,1.52164442e-01
6.42579079e-12,4.27690869e-09,2.13845434e-09,1.15298831e-03,5.94441991e-01,1.53247223e-01
6.44532204e-12,4.28990839e-09,2.14495420e-09,1.21935855e-03,5.96211937e-01,1.54338184e-01
6.46485329e-12,4.30290809e-09,2.15145405e-09,1.28818872e-03,5.97980342e-01,1.55437262e-01
6.48438454e-12,4.31590780e-09,2.15795390e-09,1.35951998e-03,5.99747173e-01,1.56544395e-01
6.50391579e-12,4.32890750e-09,2.16445375e-09,1.43339325e-03,6.01512399e-01,1.57659521e-01
6.52344704e-12,4.34190720e-09,2.17095360e-09,1.50984918e-03,6.03275990e-01,1.58782577e-01
6.54297829e-12,4.35490691e-09,2.17745345e-09,1.58892817e-03,6.05037914e-01,1.59913500e-01
6.56250954e-12,4.36790661e-09,2.18395330e-09,1.67067036e-03,6.06798140e-01,1.61052225e-01
6.58204079e-12,4.38090631e-09,2.19045316e-09,1.75511563e-03,6.08556636e-01,1.62198690e-01
6.60157204e-12,4.39390602e-09,2.19695301e-09,1.84230357e-03,6.10313372e-01,1.63352831e-01
6.62110329e-12,4.40690572e-09,2.20345286e-09,1.93227351e-03,6.12068316e-01,1.64514583e-01
6.64063454e-12,4.41990542e-09,2.20995271e-09,2.02506452e-03,6.13821437e-01,1.65683883e-01
6.66016579e-12,4.43290513e-09,2.21645256e-09,2.12071537e-03,6.15572704e-01,1.66860667e-01
6.67969704e-12,4.44590483e-09,2.22295241e-09,2.21926455e-03,6.17322086e-01,1.68044870e-01
6.69922829e-12,4.45890453e-09,2.22945227e-09,2.32075027e-03,6.19069552e-01,1.69236428e-01
6.71875954e-12,4.47190423e-09,2.23595212e-09,2.42521047e-03,6.20815072e-01,1.70435276e-01
6.73829079e-12,4.48490394e-09,2.24245197e-09,2.53268276e-03,6.22558613e-01,1.71641351e-01
6.75782204e-12,4.49790364e-09,2.24895182e-09,2.64320449e-03,6.24300146e-01,1.72854587e-01
6.77735329e-12,4.51090334e-09,2.25545167e-09,2.75681271e-03,6.26039639e-01,1.74074921e-01
6.79688454e-12,4.52390305e-09,2.26195152e-09,2.87354415e-03,6.27777061e-01,1.75302288e-01
6.81641579e-12,4.53690275e-09,2.26845138e-09,2.99343526e-03,6.29512383e-01,1.76536624e-01
6.83594704e-12,4.54990245e-09,2.27495123e-09,3.11652217e-03,6.31245573e-01,1.77777863e-01
6.85547829e-12,4.56290216e-09,2.28145108e-09,3.24284072e-03,6.32976602e-01,1.79025944e-01
6.87500954e-12,4.57590186e-09,2.28795093e-09,3.37242642e-03,6.34705437e-01,1.80280800e-01
6.89454079e-12,4.58890156e-09,2.29445078e-09,3.50531449e-03,6.36432050e-01,1.81542368e-01
6.91407204e-12,4.60190127e-09,2.30095063e-09,3.64153982e-03,6.38156409e-01,1.82810585e-01
6.93360329e-12,4.61490097e-09,2.30745048e-09,3.78113698e-03,6.39878486e-01,1.84085386e-01
6.95313454e-12,4.62790067e-09,2.31395034e-09,3.92414024e-03,6.41598248e-01,1.85366708e-01
6.97266579e-12,4.64090038e-09,2.32045019e-09,4.07058353e-03,6.43315668e-01,1.86654488e-01
6.99219704e-12,4.65390008e-09,2.32695004e-09,4.22050047e-03,6.45030714e-01,1.87948663e-01
7.01172829e-12,4.66689978e-09,2.33344989e-09,4.37392435e-03,6.46743357e-01,1.89249168e-01
7.03125954e-12,4.67989948e-09,2.33994974e-09,4.53088812e-03,6.48453567e-01,1.90555942e-01
7.05079079e-12,4.69289919e-09,2.34644959e-09,4.69142442e-03,6.50161315e-01,1.91868922e-01
7.07032204e-12,4.70589889e-09,2.35294945e-09,4.85556554e-03,6.51866572e-01,1.93188046e-01
7.08985329e-12,4.71889859e-09,2.35944930e-09,5.02334347e-03,6.53569307e-01,1.94513251e-01
7.10938454e-12,4.73189830e-09,2.36594915e-09,5.19478982e-03,6.55269492e-01,1.95844475e-01
7.12891579e-12,4.74489800e-09,2.37244900e-09,5.36993589e-03,6.56967098e-01,1.97181658e-01
7.14844704e-12,4.75789770e-09,2.37894885e-09,5.54881264e-03,6.58662096e-01,1.98524737e-01
7.16797829e-12,4.77089741e-09,2.38544870e-09,5.73145068e-03,6.60354457e-01,1.99873651e-01
7.18750954e-12,4.78389711e-09,2.39194856e-09,5.91788030e-03,6.62044152e-01,2.01228340e-01
7.20704079e-12,4.79689681e-09,2.39844841e-09,6.10813141e-03,6.63731153e-01,2.02588744e-01
7.22657204e-12,4.80989652e-09,2.40494826e-09,6.30223362e-03,6.65415432e-01,2.03954801e-01
7.24610329e-12,4.82289622e-09,2.41144811e-09,6.50021616e-03,6.67096960e-01,2.05326452e-01
7.26563454e-12,4.83589592e-09,2.41794796e-09,6.70210792e-03,6.68775710e-01,2.06703638e-01
7.28516579e-12,4.84889563e-09,2.42444781e-09,6.90793746e-03,6.70451653e-01,2.08086300e-01
7.30469704e-12,4.86189533e-09,2.43094766e-09,7.11773296e-03,6.72124762e-01,2.09474378e-01
7.32422829e-12,4.87489503e-09,2.43744752e-09,7.33152228e-03,6.73795009e-01,2.10867814e-01
7.34375954e-12,4.88789474e-09,2.44394737e-09,7.54933291e-03,6.75462366e-01,2.12266550e-01
7.36329079e-12,4.90089444e-09,2.45044722e-09,7.77119199e-03,6.77126808e-01,2.13670528e-01
7.38282204e-12,4.91389414e-09,2.45694707e-09,7.99712631e-03,6.78788305e-01,2.15079690e-01
7.40235329e-12,4.92689384e-09,2.46344692e-09,8.22716230e-03,6.80446833e-01,2.16493980e-01
7.42188454e-12,4.93989355e-09,2.46994677e-09,8.46132603e-03,6.82102363e-01,2.17913341e-01
7.44141579e-12,4.95289325e-09,2.47644663e-09,8.69964324e-03,6.83754870e-01,2.19337716e-01
7.46094704e-12,4.96589295e-09,2.48294648e-09,8.94213929e-03,6.85404327e-01,2.20767049e-01
7.48047829e-12,4.97889266e-09,2.48944633e-09,9.18883918e-03,6.87050707e-01,2.22201286e-01
7.50000954e-12,4.99189236e-09,2.49594618e-09,9.43976756e-03,6.88693986e-01,2.23640370e-01
7.51954079e-12,5.00489206e-09,2.50244603e-09,9.69494873e-03,6.90334136e-01,2.25084247e-01
7.53907204e-12,5.01789177e-09,2.50894588e-09,9.95440662e-03,6.91971134e-01,2.26532863e-01
7.55860329e-12,5.03089147e-09,2.51544573e-09,1.02181648e-02,6.93604952e-01,2.27986163e-01
7.57813454e-12,5.04389117e-09,2.52194559e-09,1.04862465e-02,6.95235567e-01,2.29444094e-01
7.59766579e-12,5.05689088e-09,2.52844544e-09,1.07586745e-02,6.96862952e-01,2.30906603e-01
7.61719704e-12,5.06989058e-09,2.53494529e-09,1.10354714e-02,6.98487084e-01,2.32373638e-01
7.63672829e-12,5.08289028e-09,2.54144514e-09,1.13166593e-02,7.00107937e-01,2.33845145e-01
7.65625954e-12,5.09588999e-09,2.54794499e-09,1.16022599e-02,7.01725488e-01,2.35321073e-01
7.67579079e-12,5.10888969e-09,2.55444484e-09,1.18922947e-02,7.03339711e-01,2.36801371e-01
7.69532204e-12,5.12188939e-09,2.56094470e-09,1.21867847e-02,7.04950584e-01,2.38285987e-01
