Index       TIME              V(A)              V(B)              V(C)              V(D)              V(S)             V(COUT)     
0        0.00000000e+00    0.00000000e+00    0.00000000e+00    0.00000000e+00    0.00000000e+00    0.00000000e+00    0.00000000e+00
1        5.00000000e-12    0.00000000e+00    0.00000000e+00    0.00000000e+00    0.00000000e+00    1.66396201e-09    4.02331483e-01
2        5.00000954e-12    0.00000000e+00    0.00000000e+00    0.00000000e+00    0.00000000e+00    1.66396518e-09    4.02332250e-01
3        5.00000954e-12    0.00000000e+00    0.00000000e+00    0.00000000e+00    0.00000000e+00    1.66396518e-09    4.02332251e-01
4        5.00000954e-12    0.00000000e+00    0.00000000e+00    0.00000000e+00    0.00000000e+00    1.66396518e-09    4.02332251e-01
5        5.00000954e-12    0.00000000e+00    0.00000000e+00    0.00000000e+00    0.00000000e+00    1.66396518e-09    4.02332251e-01
6        5.00000954e-12    0.00000000e+00    0.00000000e+00    0.00000000e+00    0.00000000e+00    1.66396519e-09    4.02332251e-01
7        5.00000955e-12    0.00000000e+00    0.00000000e+00    0.00000000e+00    0.00000000e+00    1.66396519e-09    4.02332251e-01
8        5.00000956e-12    0.00000000e+00    0.00000000e+00    0.00000000e+00    0.00000000e+00    1.66396519e-09    4.02332252e-01
9        5.00000958e-12    0.00000000e+00    0.00000000e+00    0.00000000e+00    0.00000000e+00    1.66396520e-09    4.02332253e-01
10       5.00000961e-12    0.00000000e+00    0.00000000e+00    0.00000000e+00    0.00000000e+00    1.66396521e-09    4.02332256e-01
11       5.00000969e-12    0.00000000e+00    0.00000000e+00    0.00000000e+00    0.00000000e+00    1.66396523e-09    4.02332262e-01
12       5.00000984e-12    0.00000000e+00    0.00000000e+00    0.00000000e+00    0.00000000e+00    1.66396528e-09    4.02332274e-01
13       5.00001013e-12    0.00000000e+00    0.00000000e+00    0.00000000e+00    0.00000000e+00    1.66396538e-09    4.02332298e-01
14       5.00001073e-12    0.00000000e+00    0.00000000e+00    0.00000000e+00    0.00000000e+00    1.66396558e-09    4.02332346e-01
15       5.00001192e-12    0.00000000e+00    0.00000000e+00    0.00000000e+00    0.00000000e+00    1.66396598e-09    4.02332442e-01
16       5.00001431e-12    0.00000000e+00    0.00000000e+00    0.00000000e+00    0.00000000e+00    1.66396677e-09    4.02332634e-01
17       5.00001908e-12    0.00000000e+00    0.00000000e+00    0.00000000e+00    0.00000000e+00    1.66396836e-09    4.02333018e-01
18       5.00002861e-12    0.00000000e+00    0.00000000e+00    0.00000000e+00    0.00000000e+00    1.66397153e-09    4.02333785e-01
19       5.00004769e-12    0.00000000e+00    0.00000000e+00    0.00000000e+00    0.00000000e+00    1.66397788e-09    4.02335320e-01
20       5.00008583e-12    0.00000000e+00    0.00000000e+00    0.00000000e+00    0.00000000e+00    1.66399057e-09    4.02338390e-01
21       5.00016213e-12    0.00000000e+00    0.00000000e+00    0.00000000e+00    0.00000000e+00    1.66401596e-09    4.02344529e-01
22       5.00031471e-12    0.00000000e+00    0.00000000e+00    0.00000000e+00    0.00000000e+00    1.66406674e-09    4.02356807e-01
23       5.00061989e-12    0.00000000e+00    0.00000000e+00    0.00000000e+00    0.00000000e+00    1.66416830e-09    4.02381363e-01
24       5.00123024e-12    0.00000000e+00    0.00000000e+00    0.00000000e+00    0.00000000e+00    1.66437142e-09    4.02430474e-01
25       5.00245094e-12    0.00000000e+00    0.00000000e+00    0.00000000e+00    0.00000000e+00    1.66477766e-09    4.02528695e-01
26       5.00489235e-12    0.00000000e+00    0.00000000e+00    0.00000000e+00    0.00000000e+00    1.66559015e-09    4.02725126e-01
27       5.00977516e-12    0.00000000e+00    0.00000000e+00    0.00000000e+00    0.00000000e+00    1.66721511e-09    4.03117947e-01
28       5.01954079e-12    0.00000000e+00    0.00000000e+00    0.00000000e+00    0.00000000e+00    1.67046504e-09    4.03903427e-01
29       5.02930641e-12    0.00000000e+00    0.00000000e+00    0.00000000e+00    0.00000000e+00    1.67371496e-09    4.04688687e-01
30       5.03907204e-12    0.00000000e+00    0.00000000e+00    0.00000000e+00    0.00000000e+00    1.67696489e-09    4.05473726e-01
31       5.04883766e-12    0.00000000e+00    0.00000000e+00    0.00000000e+00    0.00000000e+00    1.68021481e-09    4.06258540e-01
32       5.05860329e-12    0.00000000e+00    0.00000000e+00    0.00000000e+00    0.00000000e+00    1.68346474e-09    4.07043127e-01
33       5.06836891e-12    0.00000000e+00    0.00000000e+00    0.00000000e+00    0.00000000e+00    1.68671466e-09    4.07827484e-01
34       5.07813454e-12    0.00000000e+00    0.00000000e+00    0.00000000e+00    0.00000000e+00    1.68996459e-09    4.08611609e-01
35       5.08790016e-12    0.00000000e+00    0.00000000e+00    0.00000000e+00    0.00000000e+00    1.69321452e-09    4.09395499e-01
36       5.09766579e-12    0.00000000e+00    0.00000000e+00    0.00000000e+00    0.00000000e+00    1.69646444e-09    4.10179151e-01
37       5.10743141e-12    0.00000000e+00    0.00000000e+00    0.00000000e+00    0.00000000e+00    1.69971437e-09    4.10962563e-01
38       5.11719704e-12    0.00000000e+00    0.00000000e+00    0.00000000e+00    0.00000000e+00    1.70296429e-09    4.11745733e-01
39       5.12696266e-12    0.00000000e+00    0.00000000e+00    0.00000000e+00    0.00000000e+00    1.70621422e-09    4.12528656e-01
40       5.13672829e-12    0.00000000e+00    0.00000000e+00    0.00000000e+00    0.00000000e+00    1.70946414e-09    4.13311332e-01
41       5.14649391e-12    0.00000000e+00    0.00000000e+00    0.00000000e+00    0.00000000e+00    1.71271407e-09    4.14093757e-01
42       5.15625954e-12    0.00000000e+00    0.00000000e+00    0.00000000e+00    0.00000000e+00    1.71596400e-09    4.14875928e-01
43       5.16602516e-12    0.00000000e+00    0.00000000e+00    0.00000000e+00    0.00000000e+00    1.71921392e-09    4.15657843e-01
44       5.17579079e-12    0.00000000e+00    0.00000000e+00    0.00000000e+00    0.00000000e+00    1.72246385e-09    4.16439500e-01
45       5.18555641e-12    0.00000000e+00    0.00000000e+00    0.00000000e+00    0.00000000e+00    1.72571377e-09    4.17220895e-01
46       5.19532204e-12    0.00000000e+00    0.00000000e+00    0.00000000e+00    0.00000000e+00    1.72896370e-09    4.18002026e-01
47       5.20508766e-12    0.00000000e+00    0.00000000e+00    0.00000000e+00    0.00000000e+00    1.73221363e-09    4.18782891e-01
48       5.21485329e-12    0.00000000e+00    0.00000000e+00    0.00000000e+00    0.00000000e+00    1.73546355e-09    4.19563486e-01
49       5.22461891e-12    0.00000000e+00    0.00000000e+00    0.00000000e+00    0.00000000e+00    1.73871348e-09    4.20343809e-01
50       5.23438454e-12    0.00000000e+00    0.00000000e+00    0.00000000e+00    0.00000000e+00    1.74196340e-09    4.21123857e-01
51       5.24415016e-12    0.00000000e+00    0.00000000e+00    0.00000000e+00    0.00000000e+00    1.74521333e-09    4.21903629e-01
52       5.25391579e-12    0.00000000e+00    0.00000000e+00    0.00000000e+00    0.00000000e+00    1.74846325e-09    4.22683120e-01
53       5.26368141e-12    0.00000000e+00    0.00000000e+00    0.00000000e+00    0.00000000e+00    1.75171318e-09    4.23462329e-01
54       5.27344704e-12    0.00000000e+00    0.00000000e+00    0.00000000e+00    0.00000000e+00    1.75496311e-09    4.24241252e-01
55       5.28321266e-12    0.00000000e+00    0.00000000e+00    0.00000000e+00    0.00000000e+00    1.75821303e-09    4.25019888e-01
56       5.29297829e-12    0.00000000e+00    0.00000000e+00    0.00000000e+00    0.00000000e+00    1.76146296e-09    4.25798233e-01
57       5.30274391e-12    0.00000000e+00    0.00000000e+00    0.00000000e+00    0.00000000e+00    1.76471288e-09    4.26576285e-01
58       5.31250954e-12    0.00000000e+00    0.00000000e+00    0.00000000e+00    0.00000000e+00    1.76796281e-09    4.27354041e-01
59       5.32227516e-12    0.00000000e+00    0.00000000e+00    0.00000000e+00    0.00000000e+00    1.77121273e-09    4.28131498e-01
60       5.33204079e-12    0.00000000e+00    0.00000000e+00    0.00000000e+00    0.00000000e+00    1.77446266e-09    4.28908655e-01
61       5.34180641e-12    0.00000000e+00    0.00000000e+00    0.00000000e+00    0.00000000e+00    1.77771259e-09    4.29685508e-01
62       5.35157204e-12    0.00000000e+00    0.00000000e+00    0.00000000e+00    0.00000000e+00    1.78096251e-09    4.30462054e-01
63       5.36133766e-12    0.00000000e+00    0.00000000e+00    0.00000000e+00    0.00000000e+00    1.78421244e-09    4.31238291e-01
64       5.37110329e-12    0.00000000e+00    0.00000000e+00    0.00000000e+00    0.00000000e+00    1.78746236e-09    4.32014217e-01
65       5.38086891e-12    0.00000000e+00    0.00000000e+00    0.00000000e+00    0.00000000e+00    1.79071229e-09    4.32789829e-01
66       5.39063454e-12    0.00000000e+00    0.00000000e+00    0.00000000e+00    0.00000000e+00    1.79396222e-09    4.33565123e-01
67       5.40040016e-12    0.00000000e+00    0.00000000e+00    0.00000000e+00    0.00000000e+00    1.79721214e-09    4.34340098e-01
68       5.41016579e-12    0.00000000e+00    0.00000000e+00    0.00000000e+00    0.00000000e+00    1.80046207e-09    4.35114751e-01
69       5.41993141e-12    0.00000000e+00    0.00000000e+00    0.00000000e+00    0.00000000e+00    1.80371199e-09    4.35889079e-01
70       5.42969704e-12    0.00000000e+00    0.00000000e+00    0.00000000e+00    0.00000000e+00    1.80696192e-09    4.36663080e-01
71       5.43946266e-12    0.00000000e+00    0.00000000e+00    0.00000000e+00    0.00000000e+00    1.81021184e-09    4.37436751e-01
72       5.44922829e-12    0.00000000e+00    0.00000000e+00    0.00000000e+00    0.00000000e+00    1.81346177e-09    4.38210089e-01
73       5.45899391e-12    0.00000000e+00    0.00000000e+00    0.00000000e+00    0.00000000e+00    1.81671170e-09    4.38983092e-01
74       5.46875954e-12    0.00000000e+00    0.00000000e+00    0.00000000e+00    0.00000000e+00    1.81996162e-09    4.39755757e-01
75       5.47852516e-12    0.00000000e+00    0.00000000e+00    0.00000000e+00    0.00000000e+00    1.82321155e-09    4.40528081e-01
76       5.48829079e-12    0.00000000e+00    0.00000000e+00    0.00000000e+00    0.00000000e+00    1.82646147e-09    4.41300063e-01
77       5.49805641e-12    0.00000000e+00    0.00000000e+00    0.00000000e+00    0.00000000e+00    1.82971140e-09    4.42071698e-01
78       5.50782204e-12    0.00000000e+00    0.00000000e+00    0.00000000e+00    0.00000000e+00    1.83296133e-09    4.42842985e-01
79       5.51758766e-12    0.00000000e+00    0.00000000e+00    0.00000000e+00    0.00000000e+00    1.83621125e-09    4.43613921e-01
80       5.52735329e-12    0.00000000e+00    0.00000000e+00    0.00000000e+00    0.00000000e+00    1.83946118e-09    4.44384503e-01
81       5.53711891e-12    0.00000000e+00    0.00000000e+00    0.00000000e+00    0.00000000e+00    1.84271110e-09    4.45154729e-01
82       5.54688454e-12    0.00000000e+00    0.00000000e+00    0.00000000e+00    0.00000000e+00    1.84596103e-09    4.45924596e-01
83       5.55665016e-12    0.00000000e+00    0.00000000e+00    0.00000000e+00    0.00000000e+00    1.84921095e-09    4.46694101e-01
84       5.56641579e-12    0.00000000e+00    0.00000000e+00    0.00000000e+00    0.00000000e+00    1.85246088e-09    4.47463241e-01
85       5.57618141e-12    0.00000000e+00    0.00000000e+00    0.00000000e+00    0.00000000e+00    1.85571081e-09    4.48232015e-01
86       5.58594704e-12    0.00000000e+00    0.00000000e+00    0.00000000e+00    0.00000000e+00    1.85896073e-09    4.49000419e-01
87       5.59571266e-12    0.00000000e+00    0.00000000e+00    0.00000000e+00    0.00000000e+00    1.86221066e-09    4.49768450e-01
88       5.60547829e-12    0.00000000e+00    0.00000000e+00    0.00000000e+00    0.00000000e+00    1.86546058e-09    4.50536107e-01
89       5.61524391e-12    0.00000000e+00    0.00000000e+00    0.00000000e+00    0.00000000e+00    1.86871051e-09    4.51303385e-01
90       5.62500954e-12    0.00000000e+00    0.00000000e+00    0.00000000e+00    0.00000000e+00    1.87196043e-09    4.52070284e-01
91       5.63477516e-12    0.00000000e+00    0.00000000e+00    0.00000000e+00    0.00000000e+00    1.87521036e-09    4.52836799e-01
92       5.64454079e-12    0.00000000e+00    0.00000000e+00    0.00000000e+00    0.00000000e+00    1.87846029e-09    4.53602929e-01
93       5.65430641e-12    0.00000000e+00    0.00000000e+00    0.00000000e+00    0.00000000e+00    1.88171021e-09    4.54368671e-01
94       5.66407204e-12    0.00000000e+00    0.00000000e+00    0.00000000e+00    0.00000000e+00    1.88496014e-09    4.55134021e-01
95       5.67383766e-12    0.00000000e+00    0.00000000e+00    0.00000000e+00    0.00000000e+00    1.88821006e-09    4.55898978e-01
96       5.68360329e-12    0.00000000e+00    0.00000000e+00    0.00000000e+00    0.00000000e+00    1.89145999e-09    4.56663538e-01
97       5.69336891e-12    0.00000000e+00    0.00000000e+00    0.00000000e+00    0.00000000e+00    1.89470992e-09    4.57427700e-01
98       5.70313454e-12    0.00000000e+00    0.00000000e+00    0.00000000e+00    0.00000000e+00    1.89795984e-09    4.58191460e-01
99       5.71290016e-12    0.00000000e+00    0.00000000e+00    0.00000000e+00    0.00000000e+00    1.90120977e-09    4.58954816e-01
100      5.72266579e-12    0.00000000e+00    0.00000000e+00    0.00000000e+00    0.00000000e+00    1.90445969e-09    4.59717764e-01
101      5.73243141e-12    0.00000000e+00    0.00000000e+00    0.00000000e+00    0.00000000e+00    1.90770962e-09    4.60480303e-01
102      5.74219704e-12    0.00000000e+00    0.00000000e+00    0.00000000e+00    0.00000000e+00    1.91095954e-09    4.61242430e-01
103      5.75196266e-12    0.00000000e+00    0.00000000e+00    0.00000000e+00    0.00000000e+00    1.91420947e-09    4.62004142e-01
104      5.76172829e-12    0.00000000e+00    0.00000000e+00    0.00000000e+00    0.00000000e+00    1.91745940e-09    4.62765436e-01
105      5.77149391e-12    0.00000000e+00    0.00000000e+00    0.00000000e+00    0.00000000e+00    1.92070932e-09    4.63526311e-01
106      5.78125954e-12    0.00000000e+00    0.00000000e+00    0.00000000e+00    0.00000000e+00    1.92395925e-09    4.64286762e-01
107      5.79102516e-12    0.00000000e+00    0.00000000e+00    0.00000000e+00    0.00000000e+00    1.92720917e-09    4.65046788e-01
108      5.80079079e-12    0.00000000e+00    0.00000000e+00    0.00000000e+00    0.00000000e+00    1.93045910e-09    4.65806385e-01
109      5.81055641e-12    0.00000000e+00    0.00000000e+00    0.00000000e+00    0.00000000e+00    1.93370902e-09    4.66565552e-01
110      5.82032204e-12    0.00000000e+00    0.00000000e+00    0.00000000e+00    0.00000000e+00    1.93695895e-09    4.67324286e-01
111      5.83008766e-12    0.00000000e+00    0.00000000e+00    0.00000000e+00    0.00000000e+00    1.94020888e-09    4.68082583e-01
112      5.83985329e-12    0.00000000e+00    0.00000000e+00    0.00000000e+00    0.00000000e+00    1.94345880e-09    4.68840442e-01
113      5.84961891e-12    0.00000000e+00    0.00000000e+00    0.00000000e+00    0.00000000e+00    1.94670873e-09    4.69597859e-01
114      5.85938454e-12    0.00000000e+00    0.00000000e+00    0.00000000e+00    0.00000000e+00    1.94995865e-09    4.70354833e-01
115      5.86915016e-12    0.00000000e+00    0.00000000e+00    0.00000000e+00    0.00000000e+00    1.95320858e-09    4.71111360e-01
116      5.87891579e-12    0.00000000e+00    0.00000000e+00    0.00000000e+00    0.00000000e+00    1.95645851e-09    4.71867437e-01
117      5.88868141e-12    0.00000000e+00    0.00000000e+00    0.00000000e+00    0.00000000e+00    1.95970843e-09    4.72623063e-01
118      5.89844704e-12    0.00000000e+00    0.00000000e+00    0.00000000e+00    0.00000000e+00    1.96295836e-09    4.73378235e-01
119      5.90821266e-12    0.00000000e+00    0.00000000e+00    0.00000000e+00    0.00000000e+00    1.96620828e-09    4.74132949e-01
120      5.91797829e-12    0.00000000e+00    0.00000000e+00    0.00000000e+00    0.00000000e+00    1.96945821e-09    4.74887204e-01
121      5.92774391e-12    0.00000000e+00    0.00000000e+00    0.00000000e+00    0.00000000e+00    1.97270813e-09    4.75640996e-01
122      5.93750954e-12    0.00000000e+00    0.00000000e+00    0.00000000e+00    0.00000000e+00    1.97595806e-09    4.76394324e-01
123      5.94727516e-12    0.00000000e+00    0.00000000e+00    0.00000000e+00    0.00000000e+00    1.97920799e-09    4.77147184e-01
124      5.95704079e-12    0.00000000e+00    0.00000000e+00    0.00000000e+00    0.00000000e+00    1.98245791e-09    4.77899574e-01
125      5.96680641e-12    0.00000000e+00    0.00000000e+00    0.00000000e+00    0.00000000e+00    1.98570784e-09    4.78651492e-01
126      5.97657204e-12    0.00000000e+00    0.00000000e+00    0.00000000e+00    0.00000000e+00    1.98895776e-09    4.79402934e-01
127      5.98633766e-12    0.00000000e+00    0.00000000e+00    0.00000000e+00    0.00000000e+00    1.99220769e-09    4.80153898e-01
128      5.99610329e-12    0.00000000e+00    0.00000000e+00    0.00000000e+00    0.00000000e+00    1.99545761e-09    4.80904382e-01
129      6.00586891e-12    0.00000000e+00    0.00000000e+00    0.00000000e+00    0.00000000e+00    1.99870754e-09    4.81654384e-01
130      6.01563454e-12    0.00000000e+00    0.00000000e+00    0.00000000e+00    0.00000000e+00    2.00195747e-09    4.82403899e-01
131      6.02540016e-12    0.00000000e+00    0.00000000e+00    0.00000000e+00    0.00000000e+00    2.00520739e-09    4.83152927e-01
132      6.03516579e-12    0.00000000e+00    0.00000000e+00    0.00000000e+00    0.00000000e+00    2.00845732e-09    4.83901464e-01
133      6.04493141e-12    0.00000000e+00    0.00000000e+00    0.00000000e+00    0.00000000e+00    2.01170724e-09    4.84649507e-01
134      6.05469704e-12    0.00000000e+00    0.00000000e+00    0.00000000e+00    0.00000000e+00    2.01495717e-09    4.85397055e-01
135      6.06446266e-12    0.00000000e+00    0.00000000e+00    0.00000000e+00    0.00000000e+00    2.01820710e-09    4.86144105e-01
136      6.07422829e-12    0.00000000e+00    0.00000000e+00    0.00000000e+00    0.00000000e+00    2.02145702e-09    4.86890654e-01
137      6.08399391e-12    0.00000000e+00    0.00000000e+00    0.00000000e+00    0.00000000e+00    2.02470695e-09    4.87636700e-01
138      6.09375954e-12    0.00000000e+00    0.00000000e+00    0.00000000e+00    0.00000000e+00    2.02795687e-09    4.88382240e-01
139      6.11329079e-12    0.00000000e+00    0.00000000e+00    0.00000000e+00    0.00000000e+00    2.03445672e-09    4.89871790e-01
140      6.13282204e-12    0.00000000e+00    0.00000000e+00    0.00000000e+00    0.00000000e+00    2.04095658e-09    4.91359287e-01
141      6.15235329e-12    0.00000000e+00    0.00000000e+00    0.00000000e+00    0.00000000e+00    2.04745643e-09    4.92844710e-01
142      6.17188454e-12    0.00000000e+00    0.00000000e+00    0.00000000e+00    0.00000000e+00    2.05395628e-09    4.94328040e-01
143      6.19141579e-12    0.00000000e+00    0.00000000e+00    0.00000000e+00    0.00000000e+00    2.06045613e-09    4.95809256e-01
144      6.21094704e-12    0.00000000e+00    0.00000000e+00    0.00000000e+00    0.00000000e+00    2.06695598e-09    4.97288339e-01
145      6.23047829e-12    0.00000000e+00    0.00000000e+00    0.00000000e+00    0.00000000e+00    2.07345583e-09    4.98765270e-01
146      6.25000954e-12    0.00000000e+00    0.00000000e+00    0.00000000e+00    0.00000000e+00    2.07995569e-09    5.00240028e-01
147      6.26954079e-12    0.00000000e+00    0.00000000e+00    0.00000000e+00    0.00000000e+00    2.08645554e-09    5.01712593e-01
148      6.28907204e-12    0.00000000e+00    0.00000000e+00    0.00000000e+00    0.00000000e+00    2.09295539e-09    5.03182942e-01
149      6.30860329e-12    0.00000000e+00    0.00000000e+00    0.00000000e+00    0.00000000e+00    2.09945524e-09    5.04651048e-01
