Index       TIME              V(A)              V(B)              V(C)              V(D)              V(S)             V(COUT)           V(_0_)            V(_1_)            V(_2_)      
0        0.00000000e+00    0.00000000e+00    0.00000000e+00    0.00000000e+00    0.00000000e+00    0.00000000e+00    0.00000000e+00    1.20000000e+00    1.20000000e+00    1.20000000e+00
1        5.00000000e-11    0.00000000e+00    0.00000000e+00    0.00000000e+00    6.00000000e-03    4.72066956e-09    1.31851190e-09    1.20000000e+00    1.20000000e+00    1.20000000e+00
2        1.50000000e-10    0.00000000e+00    0.00000000e+00    0.00000000e+00    1.80000000e-02    5.62676189e-09    1.42729999e-09    1.20000000e+00    1.20000000e+00    1.20000000e+00
3        3.50000000e-10    0.00000000e+00    0.00000000e+00    0.00000000e+00    4.20000000e-02    5.80862811e-09    1.43627581e-09    1.20000000e+00    1.19999999e+00    1.19999999e+00
4        7.50000000e-10    0.00000000e+00    0.00000000e+00    0.00000000e+00    9.00000000e-02    5.65581369e-09    1.42786731e-09    1.20000000e+00    1.19999999e+00    1.20000000e+00
5        1.55000000e-09    0.00000000e+00    0.00000000e+00    0.00000000e+00    1.86000000e-01    5.79609130e-09    1.43600722e-09    1.20000000e+00    1.19999999e+00    1.19999999e+00
6        3.15000000e-09    0.00000000e+00    0.00000000e+00    0.00000000e+00    3.78000000e-01    5.66164695e-09    1.42799793e-09    1.20000000e+00    1.19999999e+00    1.20000000e+00
7        3.95000000e-09    0.00000000e+00    0.00000000e+00    0.00000000e+00    4.74000000e-01    5.72700576e-09    1.43195977e-09    1.20000000e+00    1.19999999e+00    1.19999999e+00
8        4.35000000e-09    0.00000000e+00    0.00000000e+00    0.00000000e+00    5.22000000e-01    5.73318856e-09    1.43198086e-09    1.20000000e+00    1.19868197e+00    1.19999999e+00
9        4.75000000e-09    0.00000000e+00    0.00000000e+00    0.00000000e+00    5.70000000e-01    5.78762844e-09    1.43198140e-09    1.20000000e+00    1.18518827e+00    1.19999999e+00
10       4.80611861e-09    0.00000000e+00    0.00000000e+00    0.00000000e+00    5.76734233e-01    5.80463576e-09    1.43198111e-09    1.20000000e+00    1.18113082e+00    1.19999999e+00
11       4.91835583e-09    0.00000000e+00    0.00000000e+00    0.00000000e+00    5.90202700e-01    5.84717966e-09    1.43198098e-09    1.20000000e+00    1.17112462e+00    1.19999999e+00
12       5.03059305e-09    0.00000000e+00    0.00000000e+00    0.00000000e+00    6.03671166e-01    5.91236624e-09    1.43198117e-09    1.20000000e+00    1.15630483e+00    1.19999999e+00
13       5.14283027e-09    0.00000000e+00    0.00000000e+00    0.00000000e+00    6.17139633e-01    6.02143958e-09    1.43198098e-09    1.20000000e+00    1.13270617e+00    1.19999999e+00
14       5.25506749e-09    0.00000000e+00    0.00000000e+00    0.00000000e+00    6.30608099e-01    6.23933224e-09    1.43198118e-09    1.20000000e+00    1.08964971e+00    1.19999999e+00
15       5.35608099e-09    0.00000000e+00    0.00000000e+00    0.00000000e+00    6.42729719e-01    6.62503886e-09    1.43198098e-09    1.20000000e+00    1.02610262e+00    1.19999999e+00
16       5.44699314e-09    0.00000000e+00    0.00000000e+00    0.00000000e+00    6.53639177e-01    7.24602561e-09    1.43198117e-09    1.20000000e+00    9.47819660e-01    1.19999999e+00
17       5.53790529e-09    0.00000000e+00    0.00000000e+00    0.00000000e+00    6.64548634e-01    8.38860859e-09    1.43198099e-09    1.20000000e+00    8.49552222e-01    1.19999999e+00
18       5.62881744e-09    0.00000000e+00    0.00000000e+00    0.00000000e+00    6.75458092e-01    1.09179086e-08    1.43198117e-09    1.20000000e+00    7.29650275e-01    1.19999999e+00
19       5.66975025e-09    0.00000000e+00    0.00000000e+00    0.00000000e+00    6.80370030e-01    3.43107688e-03    1.43198109e-09    1.20000000e+00    6.64599723e-01    1.19999999e+00
20       5.68582623e-09    0.00000000e+00    0.00000000e+00    0.00000000e+00    6.82299147e-01    9.54683334e-03    1.43198109e-09    1.20000000e+00    6.37437107e-01    1.19999999e+00
21       5.70190220e-09    0.00000000e+00    0.00000000e+00    0.00000000e+00    6.84228264e-01    2.04175781e-02    1.43198115e-09    1.20000000e+00    6.09104098e-01    1.19999999e+00
22       5.70604075e-09    0.00000000e+00    0.00000000e+00    0.00000000e+00    6.84724890e-01    2.52956899e-02    1.43198112e-09    1.20000000e+00    6.01355247e-01    1.19999999e+00
23       5.71017930e-09    0.00000000e+00    0.00000000e+00    0.00000000e+00    6.85221516e-01    3.06988069e-02    1.43198107e-09    1.20000000e+00    5.93514435e-01    1.19999999e+00
24       5.71845640e-09    0.00000000e+00    0.00000000e+00    0.00000000e+00    6.86214768e-01    4.53418797e-02    1.43198113e-09    1.20000000e+00    5.77232518e-01    1.19999999e+00
25       5.72673350e-09    0.00000000e+00    0.00000000e+00    0.00000000e+00    6.87208019e-01    6.71326645e-02    1.43198105e-09    1.20000000e+00    5.60019444e-01    1.19999999e+00
26       5.73501059e-09    0.00000000e+00    0.00000000e+00    0.00000000e+00    6.88201271e-01    9.87346950e-02    1.43198112e-09    1.20000000e+00    5.41629635e-01    1.19999999e+00
27       5.74328769e-09    0.00000000e+00    0.00000000e+00    0.00000000e+00    6.89194523e-01    1.41827542e-01    1.43198105e-09    1.20000000e+00    5.21693795e-01    1.19999999e+00
28       5.75156479e-09    0.00000000e+00    0.00000000e+00    0.00000000e+00    6.90187775e-01    1.97793358e-01    1.43198112e-09    1.20000000e+00    4.99643216e-01    1.19999999e+00
29       5.75984189e-09    0.00000000e+00    0.00000000e+00    0.00000000e+00    6.91181027e-01    2.68778552e-01    1.43198104e-09    1.20000000e+00    4.75034468e-01    1.19999999e+00
30       5.76811899e-09    0.00000000e+00    0.00000000e+00    0.00000000e+00    6.92174279e-01    3.58038264e-01    1.43198112e-09    1.20000000e+00    4.47995558e-01    1.19999999e+00
31       5.77639609e-09    0.00000000e+00    0.00000000e+00    0.00000000e+00    6.93167531e-01    4.69509163e-01    1.43198104e-09    1.20000000e+00    4.18920305e-01    1.19999999e+00
32       5.78467319e-09    0.00000000e+00    0.00000000e+00    0.00000000e+00    6.94160783e-01    6.07395223e-01    1.43198112e-09    1.20000000e+00    3.88107083e-01    1.19999999e+00
33       5.79295029e-09    0.00000000e+00    0.00000000e+00    0.00000000e+00    6.95154034e-01    7.76159945e-01    1.43198104e-09    1.20000000e+00    3.55786121e-01    1.19999999e+00
34       5.80122739e-09    0.00000000e+00    0.00000000e+00    0.00000000e+00    6.96147286e-01    9.64633782e-01    1.43198112e-09    1.20000000e+00    3.22137929e-01    1.19999999e+00
35       5.80249742e-09    0.00000000e+00    0.00000000e+00    0.00000000e+00    6.96299690e-01    9.92468604e-01    1.43198111e-09    1.20000000e+00    3.16851915e-01    1.19999999e+00
36       5.80503748e-09    0.00000000e+00    0.00000000e+00    0.00000000e+00    6.96604497e-01    1.04395699e+00    1.43198108e-09    1.20000000e+00    3.06226173e-01    1.19999999e+00
37       5.80757753e-09    0.00000000e+00    0.00000000e+00    0.00000000e+00    6.96909304e-01    1.08655182e+00    1.43198110e-09    1.20000000e+00    2.95494664e-01    1.19999999e+00
38       5.81011759e-09    0.00000000e+00    0.00000000e+00    0.00000000e+00    6.97214111e-01    1.11992099e+00    1.43198107e-09    1.20000000e+00    2.84660607e-01    1.19999999e+00
39       5.81265765e-09    0.00000000e+00    0.00000000e+00    0.00000000e+00    6.97518918e-01    1.14489649e+00    1.43198110e-09    1.20000000e+00    2.73727024e-01    1.19999999e+00
40       5.81519771e-09    0.00000000e+00    0.00000000e+00    0.00000000e+00    6.97823725e-01    1.16290199e+00    1.43198107e-09    1.20000000e+00    2.62696752e-01    1.19999999e+00
41       5.81773777e-09    0.00000000e+00    0.00000000e+00    0.00000000e+00    6.98128532e-01    1.17549175e+00    1.43198110e-09    1.20000000e+00    2.51572462e-01    1.19999999e+00
42       5.82281789e-09    0.00000000e+00    0.00000000e+00    0.00000000e+00    6.98738147e-01    1.19015893e+00    1.43198105e-09    1.20000000e+00    2.29052854e-01    1.19999999e+00
43       5.83297812e-09    0.00000000e+00    0.00000000e+00    0.00000000e+00    6.99957375e-01    1.19948077e+00    1.43198113e-09    1.20000000e+00    1.83201430e-01    1.19999999e+00
44       5.85329860e-09    0.00000000e+00    0.00000000e+00    0.00000000e+00    7.02395832e-01    1.20015495e+00    1.43198102e-09    1.20000000e+00    1.02089982e-01    1.19999999e+00
45       5.87014836e-09    0.00000000e+00    0.00000000e+00    0.00000000e+00    7.04417803e-01    1.19995407e+00    1.43198113e-09    1.20000000e+00    5.60380759e-02    1.19999999e+00
46       5.88699812e-09    0.00000000e+00    0.00000000e+00    0.00000000e+00    7.06439774e-01    1.20001540e+00    1.43198102e-09    1.20000000e+00    2.99741118e-02    1.19999999e+00
47       5.90384788e-09    0.00000000e+00    0.00000000e+00    0.00000000e+00    7.08461745e-01    1.19999450e+00    1.43198113e-09    1.20000000e+00    1.68003625e-02    1.19999999e+00
48       5.92069764e-09    0.00000000e+00    0.00000000e+00    0.00000000e+00    7.10483717e-01    1.20000202e+00    1.43198103e-09    1.20000000e+00    1.04083318e-02    1.19999999e+00
49       5.95439716e-09    0.00000000e+00    0.00000000e+00    0.00000000e+00    7.14527659e-01    1.19999873e+00    1.43198116e-09    1.20000000e+00    5.27597524e-03    1.19999999e+00
50       5.98809668e-09    0.00000000e+00    0.00000000e+00    0.00000000e+00    7.18571602e-01    1.20000080e+00    1.43198101e-09    1.20000000e+00    3.85363971e-03    1.19999999e+00
51       6.05549572e-09    0.00000000e+00    0.00000000e+00    0.00000000e+00    7.26659486e-01    1.19999936e+00    1.43198117e-09    1.20000000e+00    2.47569751e-03    1.19999999e+00
52       6.12289476e-09    0.00000000e+00    0.00000000e+00    0.00000000e+00    7.34747371e-01    1.20000050e+00    1.43198099e-09    1.20000000e+00    1.74903724e-03    1.19999999e+00
53       6.25769284e-09    0.00000000e+00    0.00000000e+00    0.00000000e+00    7.50923141e-01    1.19999955e+00    1.43198118e-09    1.20000000e+00    9.63326825e-04    1.19999999e+00
54       6.52728901e-09    0.00000000e+00    0.00000000e+00    0.00000000e+00    7.83274681e-01    1.20000043e+00    1.43198098e-09    1.20000000e+00    4.00804236e-04    1.19999999e+00
55       7.06648134e-09    0.00000000e+00    0.00000000e+00    0.00000000e+00    8.47977760e-01    1.19999958e+00    1.43198119e-09    1.20000000e+00    1.19588516e-04    1.19999999e+00
56       7.60567366e-09    0.00000000e+00    0.00000000e+00    0.00000000e+00    9.12680840e-01    1.20000040e+00    1.43198097e-09    1.20000000e+00    5.85420155e-05    1.19999999e+00
57       8.68405832e-09    0.00000000e+00    0.00000000e+00    0.00000000e+00    1.04208700e+00    1.19999960e+00    1.43198119e-09    1.20000000e+00    1.86783809e-05    1.19999999e+00
58       9.76244297e-09    0.00000000e+00    0.00000000e+00    0.00000000e+00    1.17149316e+00    1.20000039e+00    1.43198097e-09    1.20000000e+00    1.03246730e-05    1.19999999e+00
59       1.00000000e-08    0.00000000e+00    0.00000000e+00    0.00000000e+00    1.20000000e+00    1.19999963e+00    1.43198118e-09    1.20000000e+00    7.95672672e-06    1.19999999e+00
60       1.02156769e-08    0.00000000e+00    0.00000000e+00    0.00000000e+00    1.20000000e+00    1.19999999e+00    1.43198109e-09    1.20000000e+00    7.78422676e-06    1.19999999e+00
61       1.06470308e-08    0.00000000e+00    0.00000000e+00    0.00000000e+00    1.20000000e+00    1.20000000e+00    1.43198108e-09    1.20000000e+00    6.65727274e-06    1.19999999e+00
62       1.15097385e-08    0.00000000e+00    0.00000000e+00    0.00000000e+00    1.20000000e+00    1.20000000e+00    1.43198119e-09    1.20000000e+00    4.89028812e-06    1.19999999e+00
63       1.32351540e-08    0.00000000e+00    0.00000000e+00    0.00000000e+00    1.20000000e+00    1.20000000e+00    1.43198097e-09    1.20000000e+00    2.93484915e-06    1.19999999e+00
64       1.66859849e-08    0.00000000e+00    0.00000000e+00    0.00000000e+00    1.20000000e+00    1.20000000e+00    1.43198119e-09    1.20000000e+00    1.36058934e-06    1.19999999e+00
65       2.35876467e-08    0.00000000e+00    0.00000000e+00    0.00000000e+00    1.20000000e+00    1.20000000e+00    1.43198097e-09    1.20000000e+00    4.90503971e-07    1.19999999e+00
66       3.73909703e-08    0.00000000e+00    0.00000000e+00    0.00000000e+00    1.20000000e+00    1.20000000e+00    1.43198119e-09    1.20000000e+00    1.41597296e-07    1.19999999e+00
67       5.00000000e-08    0.00000000e+00    0.00000000e+00    0.00000000e+00    1.20000000e+00    1.20000000e+00    1.43198097e-09    1.20000000e+00    8.99209190e-08    1.19999999e+00
68       5.04000000e-08    0.00000000e+00    0.00000000e+00    3.00000000e-02    1.20000000e+00    1.20000000e+00    1.43198108e-09    1.20000000e+00    7.93162284e-09    1.19999999e+00
69       5.06936412e-08    0.00000000e+00    0.00000000e+00    5.20230888e-02    1.20000000e+00    1.20000000e+00    1.43198109e-09    1.20000000e+00    5.80877596e-09    1.19999999e+00
70       5.12809236e-08    0.00000000e+00    0.00000000e+00    9.60692663e-02    1.20000000e+00    1.20000000e+00    1.43198119e-09    1.20000000e+00    5.65303187e-09    1.19999999e+00
71       5.24554883e-08    0.00000000e+00    0.00000000e+00    1.84161621e-01    1.20000000e+00    1.20000000e+00    1.43198097e-09    1.20000000e+00    5.80000084e-09    1.19999999e+00
72       5.48046178e-08    0.00000000e+00    0.00000000e+00    3.60346331e-01    1.20000000e+00    1.20000000e+00    1.43198120e-09    1.19999999e+00    5.65721548e-09    1.19999999e+00
73       5.59791825e-08    0.00000000e+00    0.00000000e+00    4.48438686e-01    1.20000000e+00    1.20000000e+00    1.43198109e-09    1.19999999e+00    5.72725338e-09    1.19999999e+00
74       5.65664649e-08    0.00000000e+00    0.00000000e+00    4.92484864e-01    1.20000000e+00    1.20000000e+00    1.43198110e-09    1.19999999e+00    5.72791168e-09    1.19999999e+00
75       5.72895141e-08    0.00000000e+00    0.00000000e+00    5.46713561e-01    1.20000000e+00    1.20000000e+00    1.44467543e-09    1.19381250e+00    5.57421016e-09    1.19999999e+00
76       5.75465509e-08    0.00000000e+00    0.00000000e+00    5.65991317e-01    1.20000000e+00    1.20000000e+00    1.45944460e-09    1.18670895e+00    5.53518754e-09    1.19999999e+00
77       5.78035876e-08    0.00000000e+00    0.00000000e+00    5.85269072e-01    1.20000000e+00    1.20000000e+00    1.48431249e-09    1.17503746e+00    5.52054660e-09    1.19999999e+00
78       5.80606244e-08    0.00000000e+00    0.00000000e+00    6.04546828e-01    1.20000000e+00    1.20000000e+00    1.53642639e-09    1.15189278e+00    5.57252225e-09    1.19999999e+00
79       5.80939127e-08    0.00000000e+00    0.00000000e+00    6.07043454e-01    1.20000000e+00    1.20000000e+00    1.54656419e-09    1.14754470e+00    5.58804462e-09    1.19999999e+00
80       5.81604894e-08    0.00000000e+00    0.00000000e+00    6.12036705e-01    1.20000000e+00    1.20000000e+00    1.57030441e-09    1.13755533e+00    5.62974570e-09    1.19999999e+00
81       5.82270661e-08    0.00000000e+00    0.00000000e+00    6.17029957e-01    1.20000000e+00    1.20000000e+00    1.60289315e-09    1.12428919e+00    5.70259423e-09    1.19999999e+00
82       5.82936428e-08    0.00000000e+00    0.00000000e+00    6.22023208e-01    1.20000000e+00    1.20000000e+00    1.65024835e-09    1.10586019e+00    5.82885147e-09    1.19999999e+00
83       5.83602195e-08    0.00000000e+00    0.00000000e+00    6.27016460e-01    1.20000000e+00    1.20000000e+00    1.71948684e-09    1.08080629e+00    6.03207331e-09    1.19999999e+00
84       5.84267961e-08    0.00000000e+00    0.00000000e+00    6.32009711e-01    1.20000000e+00    1.20000000e+00    1.81674032e-09    1.04894193e+00    6.34012592e-09    1.19999999e+00
85       5.84933728e-08    0.00000000e+00    0.00000000e+00    6.37002963e-01    1.20000000e+00    1.20000000e+00    1.95042945e-09    1.01034499e+00    6.80165366e-09    1.19999999e+00
86       5.85599495e-08    0.00000000e+00    0.00000000e+00    6.41996214e-01    1.20000000e+00    1.20000000e+00    2.13454518e-09    9.65074341e-01    7.51003298e-09    1.19999999e+00
87       5.86265262e-08    0.00000000e+00    0.00000000e+00    6.46989465e-01    1.20000000e+00    1.20000000e+00    2.39288550e-09    9.13173027e-01    8.66041713e-09    1.19999999e+00
88       5.86931029e-08    0.00000000e+00    0.00000000e+00    6.51982717e-01    1.20000000e+00    1.20000000e+00    2.76922319e-09    8.54628463e-01    1.07266956e-08    1.19999999e+00
89       5.87596796e-08    0.00000000e+00    0.00000000e+00    6.56975968e-01    1.20000000e+00    1.20000000e+00    3.35250499e-09    7.89321189e-01    1.91347795e-02    1.19999999e+00
90       5.87656566e-08    0.00000000e+00    0.00000000e+00    6.57424247e-01    1.20000000e+00    1.20000000e+00    3.42025765e-09    7.83090876e-01    2.34482421e-02    1.19999999e+00
91       5.87776107e-08    0.00000000e+00    0.00000000e+00    6.58320803e-01    1.20000000e+00    1.20000000e+00    3.56400029e-09    7.70508581e-01    3.42849610e-02    1.19999999e+00
92       5.87895648e-08    0.00000000e+00    0.00000000e+00    6.59217359e-01    1.20000000e+00    1.20000000e+00    3.72456082e-09    7.57686375e-01    5.02688218e-02    1.19999999e+00
93       5.88015189e-08    0.00000000e+00    0.00000000e+00    6.60113916e-01    1.20000000e+00    1.20000000e+00    3.90342932e-09    7.44622500e-01    7.32352265e-02    1.19999999e+00
94       5.88134730e-08    0.00000000e+00    0.00000000e+00    6.61010472e-01    1.20000000e+00    1.20000000e+00    4.10337914e-09    7.31308119e-01    1.04916334e-01    1.19999999e+00
95       5.88254270e-08    0.00000000e+00    0.00000000e+00    6.61907029e-01    1.20000000e+00    1.20000000e+00    4.32811194e-09    7.17734110e-01    1.46183710e-01    1.19999999e+00
96       5.88373811e-08    0.00000000e+00    0.00000000e+00    6.62803585e-01    1.20000000e+00    1.20000000e+00    4.58233465e-09    7.03888182e-01    1.97532182e-01    1.19999999e+00
97       5.88493352e-08    0.00000000e+00    0.00000000e+00    6.63700141e-01    1.20000000e+00    1.20000000e+00    8.61527679e-05    6.89754576e-01    2.59657207e-01    1.19999999e+00
98       5.88612893e-08    0.00000000e+00    0.00000000e+00    6.64596698e-01    1.20000000e+00    1.20000000e+00    6.38928198e-04    6.75312549e-01    3.34386680e-01    1.19999999e+00
99       5.88732434e-08    0.00000000e+00    0.00000000e+00    6.65493254e-01    1.20000000e+00    1.20000000e+00    2.17641910e-03    6.60534413e-01    4.24612341e-01    1.19999999e+00
100      5.88851975e-08    0.00000000e+00    0.00000000e+00    6.66389811e-01    1.20000000e+00    1.19913156e+00    5.15603945e-03    6.45382470e-01    5.35145676e-01    1.19999999e+00
101      5.88971516e-08    0.00000000e+00    0.00000000e+00    6.67286367e-01    1.20000000e+00    1.17120426e+00    1.01248798e-02    6.29804239e-01    6.78714315e-01    1.19999999e+00
102      5.88985097e-08    0.00000000e+00    0.00000000e+00    6.67388231e-01    1.20000000e+00    1.16362158e+00    1.08555246e-02    6.28002050e-01    6.98336639e-01    1.19999999e+00
103      5.88998679e-08    0.00000000e+00    0.00000000e+00    6.67490094e-01    1.20000000e+00    1.15530587e+00    1.16049520e-02    6.26196461e-01    7.18438004e-01    1.19999999e+00
104      5.89025843e-08    0.00000000e+00    0.00000000e+00    6.67693821e-01    1.20000000e+00    1.13376417e+00    1.32211030e-02    6.22564570e-01    7.61357220e-01    1.19999999e+00
105      5.89053006e-08    0.00000000e+00    0.00000000e+00    6.67897548e-01    1.20000000e+00    1.10463440e+00    1.50035340e-02    6.18904314e-01    8.07627866e-01    1.19999999e+00
