Index       TIME              V(A)              V(B)             V(CIN)             V(D)              V(S)              V(C)             V(_04_)           V(_05_)           V(_01_)           V(_02_)           V(_03_)           V(_00_)     
0        0.00000000e+00    0.00000000e+00    0.00000000e+00    0.00000000e+00    0.00000000e+00    0.00000000e+00    0.00000000e+00    6.00000000e-01    6.00000000e-01    6.00000000e-01    6.00000000e-01    6.00000000e-01    6.00000000e-01
1        5.00000000e-11    0.00000000e+00    0.00000000e+00    0.00000000e+00    6.00000000e-03    3.51817888e-09    8.09586987e-09    1.17771624e+00    1.17781117e+00    5.51973881e-02    1.11193168e+00    1.13835544e+00    5.54674767e-02
2        5.15625000e-11    0.00000000e+00    0.00000000e+00    0.00000000e+00    6.18750000e-03    3.61250962e-09    8.32650691e-09    1.18772902e+00    1.18780614e+00    4.24089710e-02    1.12448010e+00    1.15025668e+00    4.26846913e-02
3        5.46875000e-11    0.00000000e+00    0.00000000e+00    0.00000000e+00    6.56250000e-03    3.77739098e-09    8.75275684e-09    1.19876078e+00    1.19879590e+00    2.32917589e-02    1.14445928e+00    1.16804103e+00    2.35749109e-02
4        5.78125000e-11    0.00000000e+00    0.00000000e+00    0.00000000e+00    6.93750000e-03    3.90322157e-09    9.12257578e-09    1.19987916e+00    1.19988542e+00    1.38360193e-02    1.15713115e+00    1.17802552e+00    1.41216941e-02
5        6.09375000e-11    0.00000000e+00    0.00000000e+00    0.00000000e+00    7.31250000e-03    4.00083878e-09    9.45437999e-09    1.19998824e+00    1.19998914e+00    9.13444949e-03    1.16638309e+00    1.18490448e+00    9.42137591e-03
6        6.40625000e-11    0.00000000e+00    0.00000000e+00    0.00000000e+00    7.68750000e-03    4.07556575e-09    9.75547785e-09    1.19999885e+00    1.19999897e+00    6.73260775e-03    1.17354047e+00    1.18959421e+00    7.02058524e-03
7        7.03125000e-11    0.00000000e+00    0.00000000e+00    0.00000000e+00    8.43750000e-03    4.17727432e-09    1.02813621e-08    1.20000028e+00    1.20000025e+00    4.57735917e-03    1.18371752e+00    1.19518534e+00    4.86721451e-03
8        7.65625000e-11    0.00000000e+00    0.00000000e+00    0.00000000e+00    9.18750000e-03    4.23473182e-09    1.07193218e-08    1.19999993e+00    1.19999994e+00    3.80266099e-03    1.18999940e+00    1.19777174e+00    4.09368413e-03
9        8.90625000e-11    0.00000000e+00    0.00000000e+00    0.00000000e+00    1.06875000e-02    4.28585751e-09    1.13924910e-08    1.20000004e+00    1.20000003e+00    2.93057196e-03    1.19648561e+00    1.19966004e+00    3.22058169e-03
10       1.01562500e-10    0.00000000e+00    0.00000000e+00    0.00000000e+00    1.21875000e-02    4.29747468e-09    1.18571888e-08    1.19999998e+00    1.19999998e+00    2.35651158e-03    1.19877001e+00    1.19994792e+00    2.64144951e-03
11       1.26562500e-10    0.00000000e+00    0.00000000e+00    0.00000000e+00    1.51875000e-02    4.29859560e-09    1.24117780e-08    1.20000001e+00    1.20000001e+00    1.58372927e-03    1.19997818e+00    1.20000996e+00    1.84963589e-03
12       1.51562500e-10    0.00000000e+00    0.00000000e+00    0.00000000e+00    1.81875000e-02    4.29631888e-09    1.26679575e-08    1.19999999e+00    1.19999999e+00    1.13634796e-03    1.19999944e+00    1.19999806e+00    1.37414288e-03
13       2.01562500e-10    0.00000000e+00    0.00000000e+00    0.00000000e+00    2.41875000e-02    4.29586157e-09    1.28544259e-08    1.20000001e+00    1.20000001e+00    6.75296918e-04    1.20000026e+00    1.20000098e+00    8.31594743e-04
14       2.51562500e-10    0.00000000e+00    0.00000000e+00    0.00000000e+00    3.01875000e-02    4.29596140e-09    1.28827533e-08    1.19999999e+00    1.19999999e+00    5.08263746e-04    1.19999983e+00    1.19999949e+00    5.63364716e-04
15       3.51562500e-10    0.00000000e+00    0.00000000e+00    0.00000000e+00    4.21875000e-02    4.29593367e-09    1.28888005e-08    1.20000001e+00    1.20000001e+00    3.30714903e-04    1.20000013e+00    1.20000037e+00    2.98215984e-04
16       5.51562500e-10    0.00000000e+00    0.00000000e+00    0.00000000e+00    6.61875000e-02    4.29595015e-09    1.28873505e-08    1.19999999e+00    1.19999999e+00    1.66960211e-04    1.19999987e+00    1.19999967e+00    1.23691931e-04
17       7.51562500e-10    0.00000000e+00    0.00000000e+00    0.00000000e+00    9.01875000e-02    4.29593798e-09    1.28880663e-08    1.20000001e+00    1.20000001e+00    1.03207390e-04    1.20000011e+00    1.20000028e+00    6.68979234e-05
18       9.51562500e-10    0.00000000e+00    0.00000000e+00    0.00000000e+00    1.14187500e-01    4.29594731e-09    1.28877125e-08    1.19999999e+00    1.19999999e+00    6.85934173e-05    1.19999988e+00    1.19999975e+00    4.45123297e-05
19       1.15156250e-09    0.00000000e+00    0.00000000e+00    0.00000000e+00    1.38187500e-01    4.29594008e-09    1.28878877e-08    1.20000001e+00    1.20000001e+00    5.06594290e-05    1.20000010e+00    1.20000021e+00    2.93410108e-05
20       1.35156250e-09    0.00000000e+00    0.00000000e+00    0.00000000e+00    1.62187500e-01    4.29594569e-09    1.28878006e-08    1.19999999e+00    1.19999999e+00    3.72791451e-05    1.19999990e+00    1.19999981e+00    2.31658806e-05
21       1.55156250e-09    0.00000000e+00    0.00000000e+00    0.00000000e+00    1.86187500e-01    4.29594119e-09    1.28878444e-08    1.20000001e+00    1.20000000e+00    3.01800953e-05    1.20000009e+00    1.20000016e+00    1.63455665e-05
22       1.75156250e-09    0.00000000e+00    0.00000000e+00    0.00000000e+00    2.10187500e-01    4.29594488e-09    1.28878219e-08    1.19999999e+00    1.19999999e+00    2.33767348e-05    1.19999991e+00    1.19999985e+00    1.42945117e-05
23       1.95156250e-09    0.00000000e+00    0.00000000e+00    0.00000000e+00    2.34187500e-01    4.29594185e-09    1.28878339e-08    1.20000001e+00    1.20000000e+00    2.00631613e-05    1.20000008e+00    1.20000012e+00    1.03603954e-05
24       2.15156250e-09    0.00000000e+00    0.00000000e+00    0.00000000e+00    2.58187500e-01    4.29594439e-09    1.28878271e-08    1.19999999e+00    1.19999999e+00    1.60096682e-05    1.19999992e+00    1.19999989e+00    9.73651580e-06
25       2.35156250e-09    0.00000000e+00    0.00000000e+00    0.00000000e+00    2.82187500e-01    4.29594236e-09    1.28878313e-08    1.20000000e+00    1.20000000e+00    1.43157153e-05    1.20000007e+00    1.20000009e+00    7.12988307e-06
26       2.55156250e-09    0.00000000e+00    0.00000000e+00    0.00000000e+00    3.06187500e-01    4.29594408e-09    1.28878284e-08    1.19999999e+00    1.19999999e+00    1.16442218e-05    1.19999992e+00    1.19999991e+00    7.07253365e-06
27       2.75156250e-09    0.00000000e+00    0.00000000e+00    0.00000000e+00    3.30187500e-01    4.29594232e-09    1.28878305e-08    1.20000000e+00    1.20000000e+00    1.07325927e-05    1.20000006e+00    1.20000007e+00    5.19816907e-06
28       2.95156250e-09    0.00000000e+00    0.00000000e+00    0.00000000e+00    3.54187500e-01    4.29594407e-09    1.28878289e-08    1.19999999e+00    1.20000000e+00    8.84883709e-06    1.19999993e+00    1.19999993e+00    5.37404453e-06
29       3.15156250e-09    0.00000000e+00    0.00000000e+00    0.00000000e+00    3.78187500e-01    4.29594232e-09    1.28878304e-08    1.20000000e+00    1.20000000e+00    8.34535800e-06    1.20000006e+00    1.20000006e+00    3.95654710e-06
30       3.35156250e-09    0.00000000e+00    0.00000000e+00    0.00000000e+00    4.02187500e-01    4.29594407e-09    1.28878288e-08    1.19999999e+00    1.20000000e+00    6.95337439e-06    1.19999994e+00    1.19999994e+00    4.22123639e-06
31       3.55156250e-09    0.00000000e+00    0.00000000e+00    0.00000000e+00    4.26187500e-01    4.29594232e-09    1.28878305e-08    1.20000000e+00    1.20000000e+00    6.67360189e-06    1.20000005e+00    1.20000005e+00    3.11408178e-06
32       3.75156250e-09    0.00000000e+00    0.00000000e+00    0.00000000e+00    4.50187500e-01    4.29594407e-09    1.28878290e-08    1.19999999e+00    1.20000000e+00    5.61009669e-06    1.19999994e+00    1.19999995e+00    3.40118113e-06
33       3.95156250e-09    0.00000000e+00    0.00000000e+00    0.00000000e+00    4.74187500e-01    4.29594231e-09    1.28878304e-08    1.20000000e+00    1.20000000e+00    5.45664462e-06    1.20000005e+00    1.20000004e+00    2.51767606e-06
34       4.15156250e-09    0.00000000e+00    0.00000000e+00    0.00000000e+00    4.98187500e-01    4.29594408e-09    1.28878288e-08    1.19999999e+00    1.20000000e+00    4.62403255e-06    1.19999995e+00    1.19999995e+00    2.79621550e-06
35       4.35156250e-09    0.00000000e+00    0.00000000e+00    0.00000000e+00    5.22187500e-01    4.29594231e-09    1.28878305e-08    1.20000000e+00    1.20000000e+00    4.54894589e-06    1.20000004e+00    1.20000004e+00    2.08069062e-06
36       4.55156250e-09    0.00000000e+00    0.00000000e+00    0.00000000e+00    5.46187500e-01    4.29594408e-09    1.28878290e-08    1.19999999e+00    1.20000000e+00    3.90769526e-06    1.19999995e+00    1.19999996e+00    2.33683623e-06
37       4.75156250e-09    0.00000000e+00    0.00000000e+00    0.00000000e+00    5.70187500e-01    4.29594231e-09    1.28878304e-08    1.20000000e+00    1.20000000e+00    3.92267713e-06    1.20000004e+00    1.20000003e+00    1.75122076e-06
38       4.95156250e-09    0.00000000e+00    0.00000000e+00    0.00000000e+00    5.94187500e-01    4.29594408e-09    1.28878288e-08    1.20000000e+00    1.20000000e+00    3.47067944e-06    1.19999995e+00    1.19999996e+00    1.97973404e-06
39       5.15156250e-09    0.00000000e+00    0.00000000e+00    0.00000000e+00    6.18187500e-01    4.29594231e-09    1.28878303e-08    1.20000000e+00    1.20000000e+00    3.67473344e-06    1.20000003e+00    1.20000003e+00    1.49671008e-06
40       5.18151140e-09    0.00000000e+00    0.00000000e+00    0.00000000e+00    6.21781367e-01    4.29594309e-09    1.28878298e-08    1.20000000e+00    1.20000000e+00    3.58543300e-06    1.20000000e+00    1.20000000e+00    1.62386750e-06
41       5.21146029e-09    0.00000000e+00    0.00000000e+00    0.00000000e+00    6.25375235e-01    4.29594321e-09    1.28878297e-08    1.20000000e+00    1.20000000e+00    3.58264651e-06    1.19999999e+00    1.19999999e+00    1.63792264e-06
42       5.27135808e-09    0.00000000e+00    0.00000000e+00    0.00000000e+00    6.32562970e-01    4.29594312e-09    1.28878297e-08    1.20000000e+00    1.20000000e+00    3.68517914e-06    1.20000000e+00    1.20000000e+00    1.58158666e-06
43       5.33125587e-09    0.00000000e+00    0.00000000e+00    0.00000000e+00    6.39750705e-01    4.29594325e-09    1.28878296e-08    1.20000000e+00    1.20000000e+00    3.82504223e-06    1.19999999e+00    1.19999999e+00    1.56190417e-06
44       5.39115366e-09    0.00000000e+00    0.00000000e+00    0.00000000e+00    6.46938440e-01    4.29594313e-09    1.28878296e-08    1.20000000e+00    1.20000000e+00    4.06839492e-06    1.20000000e+00    1.20000000e+00    1.51680542e-06
45       5.45105146e-09    0.00000000e+00    0.00000000e+00    0.00000000e+00    6.54126175e-01    4.29594326e-09    1.28878296e-08    1.20000000e+00    1.20000000e+00    4.41554293e-06    1.19999999e+00    1.19999999e+00    1.49267728e-06
46       5.51094925e-09    0.00000000e+00    0.00000000e+00    0.00000000e+00    6.61313910e-01    4.29594313e-09    1.28878297e-08    1.20000000e+00    1.20000000e+00    4.95573645e-06    1.20000000e+00    1.20000000e+00    1.45470472e-06
47       5.57084704e-09    0.00000000e+00    0.00000000e+00    0.00000000e+00    6.68501645e-01    4.29594326e-09    1.28878296e-08    1.20000000e+00    1.20000000e+00    5.80068621e-06    1.19999999e+00    1.19999999e+00    1.42887679e-06
48       5.63074483e-09    0.00000000e+00    0.00000000e+00    0.00000000e+00    6.75689379e-01    4.29594313e-09    1.28878297e-08    1.20000000e+00    1.20000000e+00    7.26716088e-06    1.20000000e+00    1.20000000e+00    1.39565977e-06
49       5.69064262e-09    0.00000000e+00    0.00000000e+00    0.00000000e+00    6.82877114e-01    4.29594326e-09    1.28878296e-08    1.20000000e+00    1.20000000e+00    9.75524484e-05    1.19999999e+00    1.19999999e+00    1.36960885e-06
50       5.70091858e-09    0.00000000e+00    0.00000000e+00    0.00000000e+00    6.84110229e-01    4.29594324e-09    1.28878296e-08    1.20000000e+00    1.20000000e+00    1.88346676e-04    1.19999999e+00    1.20000000e+00    1.36397271e-06
51       5.72147049e-09    0.00000000e+00    0.00000000e+00    0.00000000e+00    6.86576459e-01    4.29594328e-09    1.28878297e-08    1.20000000e+00    1.20000000e+00    7.96704060e-04    1.20000000e+00    1.20000000e+00    1.35389394e-06
52       5.76257431e-09    0.00000000e+00    0.00000000e+00    0.00000000e+00    6.91508918e-01    4.29594315e-09    1.28878296e-08    1.20000000e+00    1.20000000e+00    2.21426316e-02    1.19999999e+00    1.20000000e+00    1.33522537e-06
53       5.76725576e-09    0.00000000e+00    0.00000000e+00    0.00000000e+00    6.92070691e-01    4.29594318e-09    1.28878296e-08    1.20000000e+00    1.20000000e+00    2.86260631e-02    1.19999999e+00    1.20000000e+00    1.33305301e-06
54       5.77193721e-09    0.00000000e+00    0.00000000e+00    0.00000000e+00    6.92632465e-01    4.29594321e-09    1.28878297e-08    1.20000000e+00    1.20000000e+00    3.61384175e-02    1.19999999e+00    1.20000000e+00    1.33090003e-06
55       5.78130011e-09    0.00000000e+00    0.00000000e+00    0.00000000e+00    6.93756013e-01    4.29594316e-09    1.28878296e-08    1.20000000e+00    1.20000000e+00    5.79611683e-02    1.19999999e+00    1.20000000e+00    1.32665764e-06
56       5.79066301e-09    0.00000000e+00    0.00000000e+00    0.00000000e+00    6.94879561e-01    4.29594322e-09    1.28878297e-08    1.20000000e+00    1.20000000e+00    9.07724691e-02    1.19999999e+00    1.20000000e+00    1.32244953e-06
57       5.80002591e-09    0.00000000e+00    0.00000000e+00    0.00000000e+00    6.96003109e-01    4.29594317e-09    1.28878296e-08    1.20000000e+00    1.20000000e+00    1.37987795e-01    1.19999999e+00    1.20000000e+00    1.31826089e-06
58       5.80938880e-09    0.00000000e+00    0.00000000e+00    0.00000000e+00    6.97126657e-01    4.29594322e-09    1.28878297e-08    1.20000000e+00    1.20000000e+00    2.03598556e-01    1.19999999e+00    1.20000000e+00    1.31409221e-06
59       5.81875170e-09    0.00000000e+00    0.00000000e+00    0.00000000e+00    6.98250204e-01    4.29594317e-09    1.28878297e-08    1.20000000e+00    1.20000000e+00    2.91851878e-01    1.19999999e+00    1.20000000e+00    1.30994334e-06
60       5.82811460e-09    0.00000000e+00    0.00000000e+00    0.00000000e+00    6.99373752e-01    4.29594322e-09    1.28878297e-08    1.20000000e+00    1.20000000e+00    4.07069791e-01    1.19999999e+00    1.20000000e+00    1.30581416e-06
61       5.83747750e-09    0.00000000e+00    0.00000000e+00    0.00000000e+00    7.00497300e-01    4.29676606e-09    1.28878297e-08    1.20000000e+00    1.20000000e+00    5.51658145e-01    1.19889009e+00    1.20000000e+00    1.30170454e-06
62       5.84684040e-09    0.00000000e+00    0.00000000e+00    0.00000000e+00    7.01620848e-01    4.31063345e-09    1.28878297e-08    1.20000000e+00    1.20000000e+00    7.03957594e-01    1.18249685e+00    1.20000000e+00    1.29761435e-06
63       5.85526701e-09    0.00000000e+00    0.00000000e+00    0.00000000e+00    7.02632041e-01    4.36072155e-09    1.28878297e-08    1.20000000e+00    1.20000000e+00    8.22624513e-01    1.14349922e+00    1.19999999e+00    1.29394971e-06
64       5.86272078e-09    0.00000000e+00    0.00000000e+00    0.00000000e+00    7.03526494e-01    4.45929256e-09    1.28878297e-08    1.20000000e+00    1.20000000e+00    9.10557991e-01    1.09060685e+00    1.19999999e+00    1.29072110e-06
65       5.87017455e-09    0.00000000e+00    0.00000000e+00    0.00000000e+00    7.04420947e-01    4.62869109e-09    1.28878297e-08    1.20000000e+00    1.20000000e+00    9.85890441e-01    1.02126528e+00    1.19999999e+00    1.28750461e-06
66       5.87762833e-09    0.00000000e+00    0.00000000e+00    0.00000000e+00    7.05315399e-01    4.89254355e-09    1.28878297e-08    1.20000000e+00    1.20000000e+00    1.04803237e+00    9.36225917e-01    1.19999999e+00    1.28430017e-06
67       5.88508210e-09    0.00000000e+00    0.00000000e+00    0.00000000e+00    7.06209852e-01    5.28775326e-09    1.28878297e-08    1.20000000e+00    1.20000000e+00    1.09626045e+00    8.36635885e-01    1.19999999e+00    1.28110772e-06
68       5.89253588e-09    0.00000000e+00    0.00000000e+00    0.00000000e+00    7.07104305e-01    5.87823150e-09    1.28878297e-08    1.20000000e+00    1.20000000e+00    1.13158652e+00    7.21973586e-01    1.19999999e+00    1.27792721e-06
69       5.89998965e-09    0.00000000e+00    0.00000000e+00    0.00000000e+00    7.07998758e-01    3.25199020e-03    1.28878297e-08    1.20000000e+00    1.20000000e+00    1.15622195e+00    5.88868816e-01    1.19999999e+00    1.27475856e-06
70       5.90744343e-09    0.00000000e+00    0.00000000e+00    0.00000000e+00    7.08893211e-01    2.34979545e-02    1.28878297e-08    1.20000000e+00    1.20000000e+00    1.17270307e+00    4.43773288e-01    1.19999999e+00    1.27160172e-06
71       5.91415182e-09    0.00000000e+00    0.00000000e+00    0.00000000e+00    7.09698219e-01    7.10076259e-02    1.28878297e-08    1.20000000e+00    1.20000000e+00    1.18246862e+00    3.22970926e-01    1.19999999e+00    1.26877062e-06
72       5.92000366e-09    0.00000000e+00    0.00000000e+00    0.00000000e+00    7.10400439e-01    1.40798395e-01    1.28878297e-08    1.20000000e+00    1.20000000e+00    1.18821617e+00    2.38244440e-01    1.19999999e+00    1.26630875e-06
73       5.92527032e-09    0.00000000e+00    0.00000000e+00    0.00000000e+00    7.11032438e-01    2.25924457e-01    1.28878297e-08    1.20000000e+00    1.20000000e+00    1.19182058e+00    1.79735444e-01    1.19999999e+00    1.26409921e-06
74       5.93053697e-09    0.00000000e+00    0.00000000e+00    0.00000000e+00    7.11664437e-01    3.30049044e-01    1.28878297e-08    1.20000000e+00    1.20000000e+00    1.19436117e+00    1.35673712e-01    1.19999999e+00    1.26189547e-06
75       5.93580363e-09    0.00000000e+00    0.00000000e+00    0.00000000e+00    7.12296435e-01    4.51319591e-01    1.28878297e-08    1.20000000e+00    1.20000000e+00    1.19613577e+00    1.03149664e-01    1.19999999e+00    1.25969751e-06
76       5.94107028e-09    0.00000000e+00    0.00000000e+00    0.00000000e+00    7.12928434e-01    5.89939610e-01    1.28878297e-08    1.20000000e+00    1.20000000e+00    1.19736556e+00    7.93977945e-02    1.19999999e+00    1.25750530e-06
77       5.94633694e-09    0.00000000e+00    0.00000000e+00    0.00000000e+00    7.13560432e-01    7.43061454e-01    1.28878297e-08    1.20000000e+00    1.20000000e+00    1.19821199e+00    6.21104581e-02    1.19999999e+00    1.25531884e-06
78       5.95160359e-09    0.00000000e+00    0.00000000e+00    0.00000000e+00    7.14192431e-01    8.90732486e-01    1.28878297e-08    1.20000000e+00    1.20000000e+00    1.19879112e+00    4.94917201e-02    1.19999999e+00    1.25313809e-06
79       5.95687025e-09    0.00000000e+00    0.00000000e+00    0.00000000e+00    7.14824430e-01    1.00790833e+00    1.28878297e-08    1.20000000e+00    1.20000000e+00    1.19918537e+00    4.02065730e-02    1.19999999e+00    1.25096304e-06
80       5.96161024e-09    0.00000000e+00    0.00000000e+00    0.00000000e+00    7.15393228e-01    1.08080937e+00    1.28878297e-08    1.20000000e+00    1.20000000e+00    1.19942983e+00    3.39054888e-02    1.19999999e+00    1.24901035e-06
81       5.96635023e-09    0.00000000e+00    0.00000000e+00    0.00000000e+00    7.15962027e-01    1.12780333e+00    1.28878297e-08    1.20000000e+00    1.20000000e+00    1.19960171e+00    2.90099943e-02    1.19999999e+00    1.24706224e-06
