Index       TIME              V(A)              V(B)              V(C)              V(D)              V(S)             V(COUT)     
0        0.00000000e+00    0.00000000e+00    0.00000000e+00    0.00000000e+00    0.00000000e+00    0.00000000e+00    0.00000000e+00
1        5.00000000e-11    0.00000000e+00    0.00000000e+00    0.00000000e+00    0.00000000e+00    5.46645710e-09    3.92633247e-09
2        5.00003815e-11    0.00000000e+00    0.00000000e+00    0.00000000e+00    0.00000000e+00    5.46649882e-09    3.92636242e-09
3        5.00003830e-11    0.00000000e+00    0.00000000e+00    0.00000000e+00    0.00000000e+00    5.46649898e-09    3.92636254e-09
4        5.00003843e-11    0.00000000e+00    0.00000000e+00    0.00000000e+00    0.00000000e+00    5.46649913e-09    3.92636265e-09
5        5.00003870e-11    0.00000000e+00    0.00000000e+00    0.00000000e+00    0.00000000e+00    5.46649942e-09    3.92636286e-09
6        5.00003923e-11    0.00000000e+00    0.00000000e+00    0.00000000e+00    0.00000000e+00    5.46650001e-09    3.92636328e-09
7        5.00004031e-11    0.00000000e+00    0.00000000e+00    0.00000000e+00    0.00000000e+00    5.46650118e-09    3.92636412e-09
8        5.00004245e-11    0.00000000e+00    0.00000000e+00    0.00000000e+00    0.00000000e+00    5.46650353e-09    3.92636581e-09
9        5.00004674e-11    0.00000000e+00    0.00000000e+00    0.00000000e+00    0.00000000e+00    5.46650822e-09    3.92636918e-09
10       5.00005533e-11    0.00000000e+00    0.00000000e+00    0.00000000e+00    0.00000000e+00    5.46651761e-09    3.92637592e-09
11       5.00007249e-11    0.00000000e+00    0.00000000e+00    0.00000000e+00    0.00000000e+00    5.46653638e-09    3.92638939e-09
12       5.00010683e-11    0.00000000e+00    0.00000000e+00    0.00000000e+00    0.00000000e+00    5.46657392e-09    3.92641635e-09
13       5.00017549e-11    0.00000000e+00    0.00000000e+00    0.00000000e+00    0.00000000e+00    5.46664901e-09    3.92647025e-09
14       5.00031282e-11    0.00000000e+00    0.00000000e+00    0.00000000e+00    0.00000000e+00    5.46679916e-09    3.92657804e-09
15       5.00058748e-11    0.00000000e+00    0.00000000e+00    0.00000000e+00    0.00000000e+00    5.46709939e-09    3.92679352e-09
16       5.00113679e-11    0.00000000e+00    0.00000000e+00    0.00000000e+00    0.00000000e+00    5.46769956e-09    3.92722412e-09
17       5.00223543e-11    0.00000000e+00    0.00000000e+00    0.00000000e+00    0.00000000e+00    5.46889878e-09    3.92808386e-09
18       5.00443269e-11    0.00000000e+00    0.00000000e+00    0.00000000e+00    0.00000000e+00    5.47129270e-09    3.92979754e-09
19       5.00662996e-11    0.00000000e+00    0.00000000e+00    0.00000000e+00    0.00000000e+00    5.47368059e-09    3.93150349e-09
20       5.00882722e-11    0.00000000e+00    0.00000000e+00    0.00000000e+00    0.00000000e+00    5.47606246e-09    3.93320174e-09
21       5.01102449e-11    0.00000000e+00    0.00000000e+00    0.00000000e+00    0.00000000e+00    5.47843830e-09    3.93489231e-09
22       5.01322176e-11    0.00000000e+00    0.00000000e+00    0.00000000e+00    0.00000000e+00    5.48080812e-09    3.93657522e-09
23       5.01541902e-11    0.00000000e+00    0.00000000e+00    0.00000000e+00    0.00000000e+00    5.48317191e-09    3.93825050e-09
24       5.01761629e-11    0.00000000e+00    0.00000000e+00    0.00000000e+00    0.00000000e+00    5.48552968e-09    3.93991818e-09
25       5.01981355e-11    0.00000000e+00    0.00000000e+00    0.00000000e+00    0.00000000e+00    5.48788142e-09    3.94157827e-09
26       5.02201082e-11    0.00000000e+00    0.00000000e+00    0.00000000e+00    0.00000000e+00    5.49022714e-09    3.94323080e-09
27       5.02420808e-11    0.00000000e+00    0.00000000e+00    0.00000000e+00    0.00000000e+00    5.49256684e-09    3.94487579e-09
28       5.02640535e-11    0.00000000e+00    0.00000000e+00    0.00000000e+00    0.00000000e+00    5.49490051e-09    3.94651327e-09
29       5.02860261e-11    0.00000000e+00    0.00000000e+00    0.00000000e+00    0.00000000e+00    5.49722817e-09    3.94814327e-09
30       5.03079988e-11    0.00000000e+00    0.00000000e+00    0.00000000e+00    0.00000000e+00    5.49954981e-09    3.94976580e-09
31       5.03299715e-11    0.00000000e+00    0.00000000e+00    0.00000000e+00    0.00000000e+00    5.50186544e-09    3.95138090e-09
32       5.03519441e-11    0.00000000e+00    0.00000000e+00    0.00000000e+00    0.00000000e+00    5.50417505e-09    3.95298859e-09
33       5.03739168e-11    0.00000000e+00    0.00000000e+00    0.00000000e+00    0.00000000e+00    5.50647865e-09    3.95458889e-09
34       5.03958894e-11    0.00000000e+00    0.00000000e+00    0.00000000e+00    0.00000000e+00    5.50877623e-09    3.95618183e-09
35       5.04178621e-11    0.00000000e+00    0.00000000e+00    0.00000000e+00    0.00000000e+00    5.51106782e-09    3.95776744e-09
36       5.04398347e-11    0.00000000e+00    0.00000000e+00    0.00000000e+00    0.00000000e+00    5.51335339e-09    3.95934574e-09
37       5.04618074e-11    0.00000000e+00    0.00000000e+00    0.00000000e+00    0.00000000e+00    5.51563297e-09    3.96091676e-09
38       5.04837801e-11    0.00000000e+00    0.00000000e+00    0.00000000e+00    0.00000000e+00    5.51790654e-09    3.96248052e-09
39       5.05057527e-11    0.00000000e+00    0.00000000e+00    0.00000000e+00    0.00000000e+00    5.52017412e-09    3.96403705e-09
40       5.05277254e-11    0.00000000e+00    0.00000000e+00    0.00000000e+00    0.00000000e+00    5.52243571e-09    3.96558638e-09
41       5.05496980e-11    0.00000000e+00    0.00000000e+00    0.00000000e+00    0.00000000e+00    5.52469130e-09    3.96712853e-09
42       5.05716707e-11    0.00000000e+00    0.00000000e+00    0.00000000e+00    0.00000000e+00    5.52694091e-09    3.96866353e-09
43       5.05936433e-11    0.00000000e+00    0.00000000e+00    0.00000000e+00    0.00000000e+00    5.52918454e-09    3.97019141e-09
44       5.06156160e-11    0.00000000e+00    0.00000000e+00    0.00000000e+00    0.00000000e+00    5.53142219e-09    3.97171219e-09
45       5.06375886e-11    0.00000000e+00    0.00000000e+00    0.00000000e+00    0.00000000e+00    5.53365386e-09    3.97322591e-09
46       5.06595613e-11    0.00000000e+00    0.00000000e+00    0.00000000e+00    0.00000000e+00    5.53587956e-09    3.97473258e-09
47       5.06815340e-11    0.00000000e+00    0.00000000e+00    0.00000000e+00    0.00000000e+00    5.53809930e-09    3.97623224e-09
48       5.07035066e-11    0.00000000e+00    0.00000000e+00    0.00000000e+00    0.00000000e+00    5.54031307e-09    3.97772491e-09
49       5.07254793e-11    0.00000000e+00    0.00000000e+00    0.00000000e+00    0.00000000e+00    5.54252088e-09    3.97921062e-09
50       5.07474519e-11    0.00000000e+00    0.00000000e+00    0.00000000e+00    0.00000000e+00    5.54472274e-09    3.98068940e-09
51       5.07913972e-11    0.00000000e+00    0.00000000e+00    0.00000000e+00    0.00000000e+00    5.54910862e-09    3.98362628e-09
52       5.08353426e-11    0.00000000e+00    0.00000000e+00    0.00000000e+00    0.00000000e+00    5.55347074e-09    3.98653577e-09
53       5.08792879e-11    0.00000000e+00    0.00000000e+00    0.00000000e+00    0.00000000e+00    5.55780915e-09    3.98941808e-09
54       5.09232332e-11    0.00000000e+00    0.00000000e+00    0.00000000e+00    0.00000000e+00    5.56212388e-09    3.99227345e-09
55       5.09671785e-11    0.00000000e+00    0.00000000e+00    0.00000000e+00    0.00000000e+00    5.56641498e-09    3.99510209e-09
56       5.10111238e-11    0.00000000e+00    0.00000000e+00    0.00000000e+00    0.00000000e+00    5.57068251e-09    3.99790423e-09
57       5.10550691e-11    0.00000000e+00    0.00000000e+00    0.00000000e+00    0.00000000e+00    5.57492649e-09    4.00068010e-09
58       5.10990144e-11    0.00000000e+00    0.00000000e+00    0.00000000e+00    0.00000000e+00    5.57914700e-09    4.00342993e-09
59       5.11429597e-11    0.00000000e+00    0.00000000e+00    0.00000000e+00    0.00000000e+00    5.58334407e-09    4.00615394e-09
60       5.11869051e-11    0.00000000e+00    0.00000000e+00    0.00000000e+00    0.00000000e+00    5.58751777e-09    4.00885235e-09
61       5.12308504e-11    0.00000000e+00    0.00000000e+00    0.00000000e+00    0.00000000e+00    5.59166815e-09    4.01152541e-09
62       5.12747957e-11    0.00000000e+00    0.00000000e+00    0.00000000e+00    0.00000000e+00    5.59579526e-09    4.01417333e-09
63       5.13187410e-11    0.00000000e+00    0.00000000e+00    0.00000000e+00    0.00000000e+00    5.59989917e-09    4.01679634e-09
64       5.13626863e-11    0.00000000e+00    0.00000000e+00    0.00000000e+00    0.00000000e+00    5.60397992e-09    4.01939468e-09
65       5.14066316e-11    0.00000000e+00    0.00000000e+00    0.00000000e+00    0.00000000e+00    5.60803760e-09    4.02196856e-09
66       5.14505769e-11    0.00000000e+00    0.00000000e+00    0.00000000e+00    0.00000000e+00    5.61207225e-09    4.02451823e-09
67       5.14945222e-11    0.00000000e+00    0.00000000e+00    0.00000000e+00    0.00000000e+00    5.61608395e-09    4.02704390e-09
68       5.15384676e-11    0.00000000e+00    0.00000000e+00    0.00000000e+00    0.00000000e+00    5.62007275e-09    4.02954581e-09
69       5.15824129e-11    0.00000000e+00    0.00000000e+00    0.00000000e+00    0.00000000e+00    5.62403873e-09    4.03202417e-09
70       5.16263582e-11    0.00000000e+00    0.00000000e+00    0.00000000e+00    0.00000000e+00    5.62798195e-09    4.03447922e-09
71       5.16703035e-11    0.00000000e+00    0.00000000e+00    0.00000000e+00    0.00000000e+00    5.63190249e-09    4.03691119e-09
72       5.17142488e-11    0.00000000e+00    0.00000000e+00    0.00000000e+00    0.00000000e+00    5.63580041e-09    4.03932029e-09
73       5.17581941e-11    0.00000000e+00    0.00000000e+00    0.00000000e+00    0.00000000e+00    5.63967578e-09    4.04170675e-09
74       5.18021394e-11    0.00000000e+00    0.00000000e+00    0.00000000e+00    0.00000000e+00    5.64352868e-09    4.04407080e-09
75       5.18460847e-11    0.00000000e+00    0.00000000e+00    0.00000000e+00    0.00000000e+00    5.64735919e-09    4.04641266e-09
76       5.18900301e-11    0.00000000e+00    0.00000000e+00    0.00000000e+00    0.00000000e+00    5.65116737e-09    4.04873255e-09
77       5.19339754e-11    0.00000000e+00    0.00000000e+00    0.00000000e+00    0.00000000e+00    5.65495331e-09    4.05103069e-09
78       5.19779207e-11    0.00000000e+00    0.00000000e+00    0.00000000e+00    0.00000000e+00    5.65871708e-09    4.05330730e-09
79       5.20218660e-11    0.00000000e+00    0.00000000e+00    0.00000000e+00    0.00000000e+00    5.66245875e-09    4.05556261e-09
80       5.20658113e-11    0.00000000e+00    0.00000000e+00    0.00000000e+00    0.00000000e+00    5.66617842e-09    4.05779682e-09
81       5.21097566e-11    0.00000000e+00    0.00000000e+00    0.00000000e+00    0.00000000e+00    5.66987615e-09    4.06001016e-09
82       5.21537019e-11    0.00000000e+00    0.00000000e+00    0.00000000e+00    0.00000000e+00    5.67355202e-09    4.06220283e-09
83       5.21976472e-11    0.00000000e+00    0.00000000e+00    0.00000000e+00    0.00000000e+00    5.67720613e-09    4.06437507e-09
84       5.22415926e-11    0.00000000e+00    0.00000000e+00    0.00000000e+00    0.00000000e+00    5.68083855e-09    4.06652707e-09
85       5.22855379e-11    0.00000000e+00    0.00000000e+00    0.00000000e+00    0.00000000e+00    5.68444936e-09    4.06865905e-09
86       5.23294832e-11    0.00000000e+00    0.00000000e+00    0.00000000e+00    0.00000000e+00    5.68803866e-09    4.07077122e-09
87       5.23734285e-11    0.00000000e+00    0.00000000e+00    0.00000000e+00    0.00000000e+00    5.69160651e-09    4.07286379e-09
88       5.24173738e-11    0.00000000e+00    0.00000000e+00    0.00000000e+00    0.00000000e+00    5.69515301e-09    4.07493697e-09
89       5.24613191e-11    0.00000000e+00    0.00000000e+00    0.00000000e+00    0.00000000e+00    5.69867824e-09    4.07699097e-09
90       5.25052644e-11    0.00000000e+00    0.00000000e+00    0.00000000e+00    0.00000000e+00    5.70218230e-09    4.07902598e-09
91       5.25492097e-11    0.00000000e+00    0.00000000e+00    0.00000000e+00    0.00000000e+00    5.70566525e-09    4.08104221e-09
92       5.25931551e-11    0.00000000e+00    0.00000000e+00    0.00000000e+00    0.00000000e+00    5.70912721e-09    4.08303986e-09
93       5.26371004e-11    0.00000000e+00    0.00000000e+00    0.00000000e+00    0.00000000e+00    5.71256824e-09    4.08501914e-09
94       5.26810457e-11    0.00000000e+00    0.00000000e+00    0.00000000e+00    0.00000000e+00    5.71598844e-09    4.08698024e-09
95       5.27249910e-11    0.00000000e+00    0.00000000e+00    0.00000000e+00    0.00000000e+00    5.71938790e-09    4.08892336e-09
96       5.27689363e-11    0.00000000e+00    0.00000000e+00    0.00000000e+00    0.00000000e+00    5.72276671e-09    4.09084869e-09
97       5.28128816e-11    0.00000000e+00    0.00000000e+00    0.00000000e+00    0.00000000e+00    5.72612495e-09    4.09275643e-09
98       5.28568269e-11    0.00000000e+00    0.00000000e+00    0.00000000e+00    0.00000000e+00    5.72946273e-09    4.09464677e-09
99       5.29007722e-11    0.00000000e+00    0.00000000e+00    0.00000000e+00    0.00000000e+00    5.73278012e-09    4.09651990e-09
100      5.29447176e-11    0.00000000e+00    0.00000000e+00    0.00000000e+00    0.00000000e+00    5.73607721e-09    4.09837601e-09
101      5.29886629e-11    0.00000000e+00    0.00000000e+00    0.00000000e+00    0.00000000e+00    5.73935411e-09    4.10021529e-09
102      5.30326082e-11    0.00000000e+00    0.00000000e+00    0.00000000e+00    0.00000000e+00    5.74261090e-09    4.10203791e-09
103      5.30765535e-11    0.00000000e+00    0.00000000e+00    0.00000000e+00    0.00000000e+00    5.74584767e-09    4.10384407e-09
104      5.31204988e-11    0.00000000e+00    0.00000000e+00    0.00000000e+00    0.00000000e+00    5.74906452e-09    4.10563395e-09
105      5.31644441e-11    0.00000000e+00    0.00000000e+00    0.00000000e+00    0.00000000e+00    5.75226153e-09    4.10740772e-09
106      5.32083894e-11    0.00000000e+00    0.00000000e+00    0.00000000e+00    0.00000000e+00    5.75543881e-09    4.10916556e-09
107      5.32523347e-11    0.00000000e+00    0.00000000e+00    0.00000000e+00    0.00000000e+00    5.75859643e-09    4.11090766e-09
108      5.32962801e-11    0.00000000e+00    0.00000000e+00    0.00000000e+00    0.00000000e+00    5.76173450e-09    4.11263419e-09
109      5.33402254e-11    0.00000000e+00    0.00000000e+00    0.00000000e+00    0.00000000e+00    5.76485311e-09    4.11434531e-09
110      5.33841707e-11    0.00000000e+00    0.00000000e+00    0.00000000e+00    0.00000000e+00    5.76795235e-09    4.11604120e-09
111      5.34281160e-11    0.00000000e+00    0.00000000e+00    0.00000000e+00    0.00000000e+00    5.77103231e-09    4.11772204e-09
112      5.34720613e-11    0.00000000e+00    0.00000000e+00    0.00000000e+00    0.00000000e+00    5.77409310e-09    4.11938798e-09
113      5.35160066e-11    0.00000000e+00    0.00000000e+00    0.00000000e+00    0.00000000e+00    5.77713479e-09    4.12103919e-09
114      5.35599519e-11    0.00000000e+00    0.00000000e+00    0.00000000e+00    0.00000000e+00    5.78015749e-09    4.12267584e-09
115      5.36038972e-11    0.00000000e+00    0.00000000e+00    0.00000000e+00    0.00000000e+00    5.78316128e-09    4.12429810e-09
116      5.36478426e-11    0.00000000e+00    0.00000000e+00    0.00000000e+00    0.00000000e+00    5.78614627e-09    4.12590611e-09
117      5.36917879e-11    0.00000000e+00    0.00000000e+00    0.00000000e+00    0.00000000e+00    5.78911255e-09    4.12750004e-09
118      5.37357332e-11    0.00000000e+00    0.00000000e+00    0.00000000e+00    0.00000000e+00    5.79206020e-09    4.12908005e-09
119      5.37796785e-11    0.00000000e+00    0.00000000e+00    0.00000000e+00    0.00000000e+00    5.79498933e-09    4.13064629e-09
120      5.38236238e-11    0.00000000e+00    0.00000000e+00    0.00000000e+00    0.00000000e+00    5.79790003e-09    4.13219892e-09
121      5.38675691e-11    0.00000000e+00    0.00000000e+00    0.00000000e+00    0.00000000e+00    5.80079239e-09    4.13373809e-09
122      5.39115144e-11    0.00000000e+00    0.00000000e+00    0.00000000e+00    0.00000000e+00    5.80366650e-09    4.13526394e-09
123      5.39554597e-11    0.00000000e+00    0.00000000e+00    0.00000000e+00    0.00000000e+00    5.80652246e-09    4.13677663e-09
124      5.39994051e-11    0.00000000e+00    0.00000000e+00    0.00000000e+00    0.00000000e+00    5.80936036e-09    4.13827630e-09
125      5.40433504e-11    0.00000000e+00    0.00000000e+00    0.00000000e+00    0.00000000e+00    5.81218030e-09    4.13976310e-09
126      5.40872957e-11    0.00000000e+00    0.00000000e+00    0.00000000e+00    0.00000000e+00    5.81498237e-09    4.14123717e-09
127      5.41312410e-11    0.00000000e+00    0.00000000e+00    0.00000000e+00    0.00000000e+00    5.81776666e-09    4.14269865e-09
128      5.41751863e-11    0.00000000e+00    0.00000000e+00    0.00000000e+00    0.00000000e+00    5.82053326e-09    4.14414769e-09
129      5.42191316e-11    0.00000000e+00    0.00000000e+00    0.00000000e+00    0.00000000e+00    5.82328228e-09    4.14558441e-09
130      5.42630769e-11    0.00000000e+00    0.00000000e+00    0.00000000e+00    0.00000000e+00    5.82601379e-09    4.14700897e-09
131      5.43070222e-11    0.00000000e+00    0.00000000e+00    0.00000000e+00    0.00000000e+00    5.82872790e-09    4.14842148e-09
132      5.43509676e-11    0.00000000e+00    0.00000000e+00    0.00000000e+00    0.00000000e+00    5.83142470e-09    4.14982209e-09
133      5.43949129e-11    0.00000000e+00    0.00000000e+00    0.00000000e+00    0.00000000e+00    5.83410427e-09    4.15121092e-09
134      5.44388582e-11    0.00000000e+00    0.00000000e+00    0.00000000e+00    0.00000000e+00    5.83676672e-09    4.15258811e-09
135      5.44828035e-11    0.00000000e+00    0.00000000e+00    0.00000000e+00    0.00000000e+00    5.83941213e-09    4.15395379e-09
136      5.45267488e-11    0.00000000e+00    0.00000000e+00    0.00000000e+00    0.00000000e+00    5.84204060e-09    4.15530807e-09
137      5.45706941e-11    0.00000000e+00    0.00000000e+00    0.00000000e+00    0.00000000e+00    5.84465221e-09    4.15665110e-09
138      5.46146394e-11    0.00000000e+00    0.00000000e+00    0.00000000e+00    0.00000000e+00    5.84724706e-09    4.15798298e-09
139      5.46585847e-11    0.00000000e+00    0.00000000e+00    0.00000000e+00    0.00000000e+00    5.84982524e-09    4.15930384e-09
140      5.47025301e-11    0.00000000e+00    0.00000000e+00    0.00000000e+00    0.00000000e+00    5.85238685e-09    4.16061380e-09
141      5.47464754e-11    0.00000000e+00    0.00000000e+00    0.00000000e+00    0.00000000e+00    5.85493197e-09    4.16191298e-09
142      5.47904207e-11    0.00000000e+00    0.00000000e+00    0.00000000e+00    0.00000000e+00    5.85746068e-09    4.16320151e-09
143      5.48343660e-11    0.00000000e+00    0.00000000e+00    0.00000000e+00    0.00000000e+00    5.85997310e-09    4.16447948e-09
144      5.48783113e-11    0.00000000e+00    0.00000000e+00    0.00000000e+00    0.00000000e+00    5.86246929e-09    4.16574702e-09
145      5.49222566e-11    0.00000000e+00    0.00000000e+00    0.00000000e+00    0.00000000e+00    5.86494936e-09    4.16700424e-09
146      5.49662019e-11    0.00000000e+00    0.00000000e+00    0.00000000e+00    0.00000000e+00    5.86741339e-09    4.16825125e-09
147      5.50101472e-11    0.00000000e+00    0.00000000e+00    0.00000000e+00    0.00000000e+00    5.86986148e-09    4.16948816e-09
148      5.50540926e-11    0.00000000e+00    0.00000000e+00    0.00000000e+00    0.00000000e+00    5.87229370e-09    4.17071509e-09
149      5.50980379e-11    0.00000000e+00    0.00000000e+00    0.00000000e+00    0.00000000e+00    5.87471016e-09    4.17193212e-09
